!  2-Port S-parameters saved by WinCal
! VAR NAME=CPW_b2
! VAR FILENAME=CPW_b2.S2P
! VAR DATE=10/12/2019 17:15:33
! VAR PHYS_PORTS=1,2
! VAR ObjTypeName=DATASET
! VAR IndexType=Frequency
!
# Hz S RI R 50
110000000000.000 +1.8801287224E-001 +2.1668395927E-001 +5.3802048763E-001 -6.9633999968E-001 +5.5980764644E-001 -6.7813385693E-001 +2.1171306887E-001 +1.8659518473E-001
110100000000.000 +1.9400526050E-001 +2.1913826492E-001 +5.2712923375E-001 -7.0155943050E-001 +5.4900056142E-001 -6.8181453945E-001 +2.1359093772E-001 +1.8485301608E-001
110200000000.000 +1.9630021584E-001 +2.1429531749E-001 +5.2137390520E-001 -7.0786200976E-001 +5.4490636987E-001 -6.8804339415E-001 +2.1496509675E-001 +1.8810210539E-001
110300000000.000 +1.9994023703E-001 +2.1745324991E-001 +5.0877432785E-001 -7.1515432383E-001 +5.3104016772E-001 -6.9889418714E-001 +2.2102433976E-001 +1.8340437088E-001
110400000000.000 +2.0448180532E-001 +2.1384406807E-001 +5.0461366145E-001 -7.1931443944E-001 +5.2565456818E-001 -7.0062214896E-001 +2.1709767023E-001 +1.8431421611E-001
110500000000.000 +2.0411698716E-001 +2.1537080368E-001 +4.9183011021E-001 -7.2985379588E-001 +5.1458611097E-001 -7.1097192383E-001 +2.2738467475E-001 +1.8271727527E-001
110600000000.000 +2.1123502396E-001 +2.1447732891E-001 +4.8627260606E-001 -7.3106297829E-001 +5.0810855292E-001 -7.1021472873E-001 +2.2274019692E-001 +1.8269607257E-001
110700000000.000 +2.1000017789E-001 +2.1401697706E-001 +4.7656930635E-001 -7.4121856710E-001 +5.0071341586E-001 -7.2026283344E-001 +2.2829981874E-001 +1.8523328125E-001
110800000000.000 +2.1624363033E-001 +2.1551754946E-001 +4.6539761664E-001 -7.4318555555E-001 +4.9168159411E-001 -7.2240317278E-001 +2.3146687689E-001 +1.7879271743E-001
110900000000.000 +2.1703821358E-001 +2.1104673995E-001 +4.5983566256E-001 -7.5053159230E-001 +4.8479860345E-001 -7.3065423775E-001 +2.3323848453E-001 +1.8325942293E-001
111000000000.000 +2.2028493817E-001 +2.1320906485E-001 +4.4747665142E-001 -7.5588723503E-001 +4.7350750039E-001 -7.3735055764E-001 +2.3911211816E-001 +1.7773534290E-001
111100000000.000 +2.2376824627E-001 +2.0975162440E-001 +4.4258545345E-001 -7.5900355483E-001 +4.6651267257E-001 -7.4081737202E-001 +2.3568748535E-001 +1.7855410710E-001
111200000000.000 +2.2277113762E-001 +2.0862744266E-001 +4.3106123390E-001 -7.6679945856E-001 +4.5421839453E-001 -7.4948951694E-001 +2.4401896908E-001 +1.7739497594E-001
111300000000.000 +2.3048318063E-001 +2.0701750566E-001 +4.2179394067E-001 -7.6888749779E-001 +4.4511991086E-001 -7.5105347304E-001 +2.4122666669E-001 +1.7529882198E-001
111400000000.000 +2.3032289158E-001 +2.0308934082E-001 +4.1128496041E-001 -7.7634689238E-001 +4.3573205648E-001 -7.5778172672E-001 +2.4827724652E-001 +1.7430456832E-001
111500000000.000 +2.3517103007E-001 +2.0553944734E-001 +4.0197313328E-001 -7.8022844076E-001 +4.2573113421E-001 -7.5993280773E-001 +2.5020926854E-001 +1.7218274965E-001
111600000000.000 +2.3765914207E-001 +1.9804018227E-001 +3.9149723683E-001 -7.8504803638E-001 +4.1757505693E-001 -7.6519158356E-001 +2.4990204273E-001 +1.7483808995E-001
111700000000.000 +2.3938502312E-001 +2.0235172456E-001 +3.8058530799E-001 -7.9158362229E-001 +4.0705998816E-001 -7.7293787398E-001 +2.5491619101E-001 +1.7163238408E-001
111800000000.000 +2.4275415169E-001 +1.9829872927E-001 +3.7283847369E-001 -7.9584399709E-001 +3.9868041333E-001 -7.7554257328E-001 +2.5022164874E-001 +1.7292067421E-001
111900000000.000 +2.4337020281E-001 +1.9677049268E-001 +3.6141408822E-001 -8.0094742115E-001 +3.8737784240E-001 -7.8405634639E-001 +2.5858845167E-001 +1.7122583382E-001
112000000000.000 +2.4903998902E-001 +1.9703814240E-001 +3.5523195618E-001 -8.0406394841E-001 +3.7860632132E-001 -7.8698479098E-001 +2.5407248178E-001 +1.7062943031E-001
112100000000.000 +2.4663759282E-001 +1.9242956874E-001 +3.4553518662E-001 -8.0705633427E-001 +3.6905758677E-001 -7.9169650358E-001 +2.5946365343E-001 +1.6793934360E-001
112200000000.000 +2.5300013931E-001 +1.9385616239E-001 +3.3496546773E-001 -8.0999503383E-001 +3.5960025926E-001 -7.9340476457E-001 +2.6480578095E-001 +1.6279394520E-001
112300000000.000 +2.5491582993E-001 +1.8757430630E-001 +3.2406452141E-001 -8.1257471319E-001 +3.5072010164E-001 -7.9734139291E-001 +2.6605211902E-001 +1.6372927973E-001
112400000000.000 +2.5622878902E-001 +1.9063339180E-001 +3.1391946868E-001 -8.1937609365E-001 +3.4073494168E-001 -8.0250729415E-001 +2.7052388425E-001 +1.6122021352E-001
112500000000.000 +2.5937785867E-001 +1.8521130558E-001 +3.0385860537E-001 -8.1956222161E-001 +3.3266795535E-001 -8.0392317290E-001 +2.6938057947E-001 +1.5799012541E-001
112600000000.000 +2.6035429848E-001 +1.8333686572E-001 +2.9241393107E-001 -8.2479079926E-001 +3.2182012360E-001 -8.1052389907E-001 +2.7770462801E-001 +1.5695249506E-001
112700000000.000 +2.6538967897E-001 +1.8264765914E-001 +2.8304064136E-001 -8.2789819762E-001 +3.1179890695E-001 -8.1145252269E-001 +2.7512327488E-001 +1.5432190974E-001
112800000000.000 +2.6511304402E-001 +1.7656206409E-001 +2.7263212446E-001 -8.2988098607E-001 +3.0165203930E-001 -8.1733405576E-001 +2.7885188427E-001 +1.5361839038E-001
112900000000.000 +2.6925667913E-001 +1.7817700708E-001 +2.6274405936E-001 -8.3356724176E-001 +2.8782363479E-001 -8.2079951863E-001 +2.8226401067E-001 +1.4986878205E-001
113000000000.000 +2.7109449348E-001 +1.7139467484E-001 +2.5347579737E-001 -8.3521186039E-001 +2.7995807278E-001 -8.2196441939E-001 +2.8125567316E-001 +1.5066656931E-001
113100000000.000 +2.7155261992E-001 +1.7298619455E-001 +2.4336627227E-001 -8.3818008247E-001 +2.6744244929E-001 -8.2811869062E-001 +2.8580919326E-001 +1.4739343741E-001
113200000000.000 +2.7579978583E-001 +1.6910740598E-001 +2.3409946538E-001 -8.4067685492E-001 +2.5907295964E-001 -8.2859874637E-001 +2.8310045260E-001 +1.4637959574E-001
113300000000.000 +2.7405215104E-001 +1.6725316454E-001 +2.2357000121E-001 -8.4344127720E-001 +2.4851113772E-001 -8.3409160062E-001 +2.8666612565E-001 +1.4646793484E-001
113400000000.000 +2.7948356035E-001 +1.6600632765E-001 +2.1397539221E-001 -8.4684635302E-001 +2.4021786840E-001 -8.3401813662E-001 +2.8668609847E-001 +1.4134005831E-001
113500000000.000 +2.7734261804E-001 +1.6137371908E-001 +2.0401160222E-001 -8.4805826994E-001 +2.2964117991E-001 -8.3918059011E-001 +2.8608518850E-001 +1.4116262317E-001
113600000000.000 +2.8093564365E-001 +1.6144508889E-001 +1.9493477067E-001 -8.5053556820E-001 +2.2106913915E-001 -8.3912848961E-001 +2.8970397269E-001 +1.3513510670E-001
113700000000.000 +2.8345029224E-001 +1.5448990024E-001 +1.8390657379E-001 -8.5100453313E-001 +2.1118570126E-001 -8.4181494518E-001 +2.9062776358E-001 +1.3094846802E-001
113800000000.000 +2.8262644739E-001 +1.5540589827E-001 +1.7312735632E-001 -8.5332581521E-001 +1.9894672987E-001 -8.4535714288E-001 +2.9319401547E-001 +1.3226142024E-001
113900000000.000 +2.8749112145E-001 +1.5164322929E-001 +1.6360772566E-001 -8.5580403131E-001 +1.9346256123E-001 -8.4403633361E-001 +2.9085219084E-001 +1.2491170707E-001
114000000000.000 +2.8649547273E-001 +1.4667854737E-001 +1.5246420210E-001 -8.5541257558E-001 +1.7924761380E-001 -8.4906401223E-001 +2.9624314572E-001 +1.2289846085E-001
114100000000.000 +2.9137265765E-001 +1.4544783772E-001 +1.4280568214E-001 -8.5765693132E-001 +1.7177414260E-001 -8.4633163253E-001 +2.9819120536E-001 +1.1843724848E-001
114200000000.000 +2.8985698021E-001 +1.4054325819E-001 +1.3251704449E-001 -8.6030123177E-001 +1.6261674198E-001 -8.5099621149E-001 +2.9579058864E-001 +1.1909760176E-001
114300000000.000 +2.9386886951E-001 +1.3888377014E-001 +1.2127757742E-001 -8.6043502293E-001 +1.5196468670E-001 -8.5163613346E-001 +3.0087967098E-001 +1.1351099977E-001
114400000000.000 +2.9547040483E-001 +1.3415620383E-001 +1.1185451279E-001 -8.6309837888E-001 +1.4079389238E-001 -8.5306805610E-001 +3.0096484446E-001 +1.1297452656E-001
114500000000.000 +2.9606654494E-001 +1.3334087450E-001 +1.0154855248E-001 -8.6313371262E-001 +1.2745584719E-001 -8.5629311322E-001 +3.0060814283E-001 +1.1435478796E-001
114600000000.000 +2.9780543324E-001 +1.3044458909E-001 +9.3514761861E-002 -8.6545189490E-001 +1.2075181650E-001 -8.5687908302E-001 +3.0050594703E-001 +1.0945221783E-001
114700000000.000 +2.9819864676E-001 +1.2604355133E-001 +8.2437638338E-002 -8.6604044233E-001 +1.0744744298E-001 -8.6020959913E-001 +2.9981908304E-001 +1.0851458459E-001
114800000000.000 +3.0012015804E-001 +1.2515456368E-001 +7.3003576725E-002 -8.6634395279E-001 +1.0055520180E-001 -8.5879762782E-001 +3.0340433161E-001 +1.0640998342E-001
114900000000.000 +3.0111198022E-001 +1.1981299156E-001 +6.2862090879E-002 -8.6894292300E-001 +8.8428427567E-002 -8.6315675537E-001 +2.9872020552E-001 +1.0142051040E-001
115000000000.000 +3.0164816975E-001 +1.1708063014E-001 +5.2604657655E-002 -8.6548032375E-001 +7.9971871140E-002 -8.6088092459E-001 +3.0407150795E-001 +9.7448483497E-002
115100000000.000 +3.0367654419E-001 +1.1092533694E-001 +4.2970644397E-002 -8.6827376073E-001 +7.0262858865E-002 -8.6143508999E-001 +3.0237697833E-001 +8.7533209547E-002
115200000000.000 +3.0310959503E-001 +1.0727383537E-001 +3.2733860864E-002 -8.6706206877E-001 +5.6909243363E-002 -8.6302579643E-001 +3.0560100460E-001 +8.8602830222E-002
115300000000.000 +3.0368152635E-001 +1.0527041136E-001 +2.5311951351E-002 -8.6795887301E-001 +5.1234790484E-002 -8.6206343912E-001 +3.0210606752E-001 +8.2587076461E-002
115400000000.000 +3.0353243247E-001 +9.9172309666E-002 +1.3476011210E-002 -8.6661276511E-001 +3.4965662447E-002 -8.6370553408E-001 +3.0695051856E-001 +7.9433361174E-002
115500000000.000 +3.0354987955E-001 +9.8187655850E-002 +4.9431381838E-003 -8.6707928865E-001 +2.6418286939E-002 -8.6184870720E-001 +3.0601010451E-001 +7.8786472210E-002
115600000000.000 +3.0377516080E-001 +9.3832158570E-002 -7.8286763606E-003 -8.6669911139E-001 +1.6884840109E-002 -8.6355448629E-001 +3.0529791168E-001 +7.5231249661E-002
115700000000.000 +3.0422975931E-001 +8.9231582579E-002 -1.5775477994E-002 -8.6581230477E-001 +6.4111273862E-003 -8.6326674826E-001 +3.0385992953E-001 +7.2635927154E-002
115800000000.000 +3.0473375895E-001 +8.6418272399E-002 -2.6970712373E-002 -8.6459052804E-001 -8.6468686421E-004 -8.6313029017E-001 +3.0826339354E-001 +6.8304242516E-002
115900000000.000 +3.0623361755E-001 +8.2335068592E-002 -3.8593957823E-002 -8.6569698573E-001 -1.3221559780E-002 -8.6488550285E-001 +3.0607071619E-001 +7.0220349093E-002
116000000000.000 +3.0340510891E-001 +8.2563251125E-002 -4.8478848666E-002 -8.6514024203E-001 -2.1009059455E-002 -8.6296904477E-001 +3.0360750530E-001 +6.9280942839E-002
116100000000.000 +3.0470722666E-001 +7.6044932361E-002 -5.8287427023E-002 -8.6498313864E-001 -3.2963730220E-002 -8.6402207855E-001 +3.0098878765E-001 +6.4665074241E-002
116200000000.000 +3.0369804981E-001 +7.4907906461E-002 -6.7297246802E-002 -8.6393981201E-001 -4.3546687581E-002 -8.6274328819E-001 +3.0488348690E-001 +6.2883567438E-002
116300000000.000 +3.0507075722E-001 +7.0967829765E-002 -7.8082911782E-002 -8.6323432112E-001 -5.2414814880E-002 -8.6384009958E-001 +2.9927773133E-001 +6.1751646456E-002
116400000000.000 +3.0248504217E-001 +6.6764982050E-002 -8.6738154956E-002 -8.6286815743E-001 -6.3816375900E-002 -8.6187443384E-001 +3.0240476263E-001 +5.6121915456E-002
116500000000.000 +3.0299831495E-001 +6.3814384231E-002 -9.7004358480E-002 -8.6103714310E-001 -7.0617874259E-002 -8.6127529157E-001 +2.9658291423E-001 +5.2445016535E-002
116600000000.000 +3.0208721732E-001 +5.8760129412E-002 -1.0630421082E-001 -8.5948134528E-001 -8.1870160998E-002 -8.6023062303E-001 +3.0274040273E-001 +4.3725230899E-002
116700000000.000 +3.0021916442E-001 +5.7487793574E-002 -1.1688982811E-001 -8.5925476187E-001 -9.1528546158E-002 -8.6025011895E-001 +2.9467961071E-001 +4.6098545518E-002
116800000000.000 +3.0033660321E-001 +5.0682578703E-002 -1.2605349167E-001 -8.5504249329E-001 -1.0006681741E-001 -8.5775015574E-001 +3.0021464649E-001 +3.5373281093E-002
116900000000.000 +2.9917104434E-001 +4.9144038636E-002 -1.3655619618E-001 -8.5594655394E-001 -1.1179402166E-001 -8.5736505892E-001 +2.9588479394E-001 +3.4939216965E-002
117000000000.000 +2.9910853017E-001 +4.4993714969E-002 -1.4758856864E-001 -8.5231338197E-001 -1.1983810741E-001 -8.5472238656E-001 +3.0274190350E-001 +3.2822824237E-002
117100000000.000 +2.9712994726E-001 +4.2391046641E-002 -1.5647954924E-001 -8.5311190952E-001 -1.3249493280E-001 -8.5447466478E-001 +2.9480172049E-001 +3.1396047053E-002
117200000000.000 +2.9723532406E-001 +3.9571125838E-002 -1.6716319921E-001 -8.4969404616E-001 -1.4213589931E-001 -8.5207315485E-001 +2.9779402540E-001 +3.1541906994E-002
117300000000.000 +2.9557738747E-001 +3.6300293687E-002 -1.7529289916E-001 -8.4901377784E-001 -1.5132454184E-001 -8.5265522659E-001 +2.9333660703E-001 +2.6094971415E-002
117400000000.000 +2.9363560135E-001 +3.3075270397E-002 -1.8806998901E-001 -8.4758886108E-001 -1.6345160837E-001 -8.4982569539E-001 +2.9378536983E-001 +2.9843869666E-002
117500000000.000 +2.9292757905E-001 +3.1560066965E-002 -1.9669132974E-001 -8.4606335096E-001 -1.7253329502E-001 -8.4887662823E-001 +2.8717884445E-001 +2.7601142049E-002
117600000000.000 +2.9048574482E-001 +2.7029509825E-002 -2.0680519009E-001 -8.4304521948E-001 -1.8276243049E-001 -8.4618880534E-001 +2.8944481818E-001 +2.4855730331E-002
117700000000.000 +2.8961628735E-001 +2.5267939502E-002 -2.1610453161E-001 -8.4181069008E-001 -1.9132694847E-001 -8.4429322814E-001 +2.8542637827E-001 +2.1166224519E-002
117800000000.000 +2.8871321200E-001 +2.2317115628E-002 -2.2573816754E-001 -8.3851783294E-001 -2.0042913875E-001 -8.4199419020E-001 +2.8568813068E-001 +2.1483965653E-002
117900000000.000 +2.8552859241E-001 +1.9724021356E-002 -2.3537031410E-001 -8.3735379841E-001 -2.1101485196E-001 -8.4113825604E-001 +2.8171080283E-001 +1.3247310277E-002
118000000000.000 +2.8497499300E-001 +1.6869136168E-002 -2.4527558810E-001 -8.3310415140E-001 -2.1975568951E-001 -8.3726710135E-001 +2.7977294864E-001 +1.5326999561E-002
118100000000.000 +2.8357362023E-001 +1.2396946304E-002 -2.5475488686E-001 -8.3072664214E-001 -2.3135546157E-001 -8.3598756579E-001 +2.8478888054E-001 +2.9778691188E-003
118200000000.000 +2.8205001683E-001 +1.1703877021E-002 -2.6489549520E-001 -8.2896836565E-001 -2.4161464769E-001 -8.3317015089E-001 +2.7649365179E-001 +1.0599187273E-002
118300000000.000 +2.7972375142E-001 +6.3270081070E-003 -2.7470442925E-001 -8.2412060126E-001 -2.5091132226E-001 -8.3087026033E-001 +2.8376063609E-001 +4.7397328149E-005
118400000000.000 +2.7820657155E-001 +3.9871682495E-003 -2.8374114381E-001 -8.2379827667E-001 -2.6171822267E-001 -8.2871359826E-001 +2.7396378437E-001 -1.0646107316E-003
118500000000.000 +2.7641577886E-001 +1.6285475520E-003 -2.9568409677E-001 -8.1706511541E-001 -2.7111430688E-001 -8.2331925451E-001 +2.8247745738E-001 -3.6834444332E-003
118600000000.000 +2.7436478547E-001 -1.4483818153E-003 -3.0527341456E-001 -8.1637785151E-001 -2.8234722432E-001 -8.2308089360E-001 +2.7343401705E-001 -5.3312563731E-003
118700000000.000 +2.7131905787E-001 -3.8932350687E-003 -3.1413479585E-001 -8.1197289883E-001 -2.9083342544E-001 -8.1788290064E-001 +2.7467216226E-001 -6.8640114450E-003
118800000000.000 +2.7127140789E-001 -7.6160551764E-003 -3.2360324101E-001 -8.0722239467E-001 -3.0110630595E-001 -8.1567343710E-001 +2.7500883411E-001 -1.4383968491E-002
118900000000.000 +2.6647782034E-001 -9.5890396392E-003 -3.3493617285E-001 -8.0494569688E-001 -3.1285685494E-001 -8.1195020811E-001 +2.6900602527E-001 -9.9900781965E-003
119000000000.000 +2.6549653107E-001 -1.1886603235E-002 -3.4405553221E-001 -7.9864282757E-001 -3.2112155503E-001 -8.0904112007E-001 +2.7038388293E-001 -1.2765240152E-002
119100000000.000 +2.6142360989E-001 -1.5120588615E-002 -3.5456289792E-001 -7.9594360206E-001 -3.3083605721E-001 -8.0522726711E-001 +2.6348044819E-001 -1.5513742057E-002
119200000000.000 +2.5940699569E-001 -1.5701771709E-002 -3.6449566789E-001 -7.9011989706E-001 -3.3982471571E-001 -8.0101446167E-001 +2.6628422238E-001 -1.6568638337E-002
119300000000.000 +2.5703200521E-001 -1.7932105768E-002 -3.7330104218E-001 -7.8563885179E-001 -3.4796538008E-001 -7.9736148364E-001 +2.6053103013E-001 -1.4142149797E-002
119400000000.000 +2.5257178317E-001 -1.9752663444E-002 -3.8308426267E-001 -7.8257728946E-001 -3.5795453350E-001 -7.9395485698E-001 +2.5873698142E-001 -1.8272696635E-002
119500000000.000 +2.5176610517E-001 -2.2094533082E-002 -3.8782700719E-001 -7.7702982329E-001 -3.6434405718E-001 -7.8907086550E-001 +2.5393562897E-001 -2.4052498893E-002
119600000000.000 +2.4689093061E-001 -2.6745479938E-002 -4.0051510958E-001 -7.7256640689E-001 -3.7493471121E-001 -7.8427546482E-001 +2.5188473233E-001 -2.9280721550E-002
119700000000.000 +2.4587826374E-001 -2.6614463843E-002 -4.0574354498E-001 -7.6713216310E-001 -3.8507172319E-001 -7.8052786844E-001 +2.4924601492E-001 -3.1373131818E-002
119800000000.000 +2.4263056502E-001 -3.0352565325E-002 -4.1933254694E-001 -7.6163449585E-001 -3.9324101257E-001 -7.7513389304E-001 +2.4855799880E-001 -3.3014190162E-002
119900000000.000 +2.3887747944E-001 -3.0378128316E-002 -4.2570124709E-001 -7.5735170633E-001 -4.0172222796E-001 -7.7210096895E-001 +2.4576637945E-001 -3.4793123476E-002
120000000000.000 +2.3725893256E-001 -3.1401373814E-002 -4.3689418222E-001 -7.5109995193E-001 -4.1185794297E-001 -7.6698523010E-001 +2.4239498449E-001 -3.5869926979E-002
120100000000.000 +2.3345072112E-001 -3.4604957609E-002 -4.4485310114E-001 -7.4755551559E-001 -4.2056579541E-001 -7.6311718082E-001 +2.4244641212E-001 -4.0915624094E-002
120200000000.000 +2.3097306235E-001 -3.4608191323E-002 -4.5492219602E-001 -7.4232575451E-001 -4.3111093130E-001 -7.5858723124E-001 +2.3938763648E-001 -3.9319962271E-002
120300000000.000 +2.2774871236E-001 -3.7471954900E-002 -4.6525996712E-001 -7.3646322427E-001 -4.3834931274E-001 -7.5438336657E-001 +2.3631025034E-001 -3.9872637755E-002
120400000000.000 +2.2461248093E-001 -3.6483611963E-002 -4.7308377911E-001 -7.3220991639E-001 -4.5007449630E-001 -7.4825387523E-001 +2.3225923869E-001 -4.1050791991E-002
120500000000.000 +2.2274669598E-001 -3.8881598475E-002 -4.8309887711E-001 -7.2587043979E-001 -4.5800164831E-001 -7.4253136483E-001 +2.3551941086E-001 -3.9576857096E-002
120600000000.000 +2.1847834696E-001 -4.1736828390E-002 -4.9453945553E-001 -7.2251703385E-001 -4.6733029060E-001 -7.3831933208E-001 +2.2902082081E-001 -4.1283486816E-002
120700000000.000 +2.1614986595E-001 -3.9966357528E-002 -5.0185830341E-001 -7.1814300783E-001 -4.7693487648E-001 -7.3362870098E-001 +2.2373066116E-001 -4.0958073446E-002
120800000000.000 +2.1292759265E-001 -4.3297178751E-002 -5.1083792615E-001 -7.0897882172E-001 -4.8417640935E-001 -7.2878314891E-001 +2.2382904052E-001 -4.4601317758E-002
120900000000.000 +2.0962509836E-001 -4.4589454588E-002 -5.2122513087E-001 -7.0577682485E-001 -4.9525750564E-001 -7.2304877361E-001 +2.1873032758E-001 -4.5107248431E-002
121000000000.000 +2.0641030161E-001 -4.6048364118E-002 -5.2836007143E-001 -6.9686204935E-001 -5.0144263095E-001 -7.1735291463E-001 +2.1772185065E-001 -4.4644883414E-002
121100000000.000 +2.0206838793E-001 -4.5768937190E-002 -5.3680939183E-001 -6.9385289426E-001 -5.1210877285E-001 -7.1125568112E-001 +2.0898971257E-001 -5.0973828908E-002
121200000000.000 +1.9989869681E-001 -4.7153535891E-002 -5.4680810525E-001 -6.8838745097E-001 -5.2073533980E-001 -7.0366980492E-001 +2.0868287820E-001 -4.8755900925E-002
121300000000.000 +1.9693395752E-001 -4.6983473569E-002 -5.5508610105E-001 -6.7872835101E-001 -5.2867090306E-001 -6.9812146657E-001 +2.0706457266E-001 -5.1826973638E-002
121400000000.000 +1.9141646400E-001 -4.8563865229E-002 -5.6224993379E-001 -6.7406973085E-001 -5.3713330816E-001 -6.9286728851E-001 +1.9972290778E-001 -5.2367521405E-002
121500000000.000 +1.8972810195E-001 -4.7697780270E-002 -5.7145492983E-001 -6.6552870392E-001 -5.4595502110E-001 -6.8820168103E-001 +2.0277379012E-001 -5.3341976044E-002
