!  2-Port S-parameters saved by WinCal
! VAR NAME=CPW_b6
! VAR FILENAME=CPW_b6.S2P
! VAR DATE=10/12/2019 16:59:24
! VAR PHYS_PORTS=1,2
! VAR ObjTypeName=DATASET
! VAR IndexType=Frequency
!
# Hz S RI R 50
110000000000.000 +2.4283701865E-001 +1.6010612349E-001 +5.1014876392E-001 -7.1234120626E-001 +5.3724875660E-001 -6.9155496445E-001 +1.8104601304E-001 +2.5403658480E-001
110100000000.000 +2.4746403551E-001 +1.6172216143E-001 +4.9900314427E-001 -7.1673315395E-001 +5.2673784249E-001 -6.9499207569E-001 +1.8374409121E-001 +2.5230479525E-001
110200000000.000 +2.4906321840E-001 +1.5630581053E-001 +4.9313524404E-001 -7.2251896747E-001 +5.2227525193E-001 -7.0081594466E-001 +1.8522852304E-001 +2.5493930762E-001
110300000000.000 +2.5212109074E-001 +1.5799909421E-001 +4.7974971099E-001 -7.2965173043E-001 +5.0827141667E-001 -7.1111694022E-001 +1.9326564671E-001 +2.5033281526E-001
110400000000.000 +2.5634209573E-001 +1.5409923683E-001 +4.7620343236E-001 -7.3394675600E-001 +5.0268386035E-001 -7.1334724641E-001 +1.8958508397E-001 +2.5214265397E-001
110500000000.000 +2.5550638260E-001 +1.5536467577E-001 +4.6247397389E-001 -7.4382341766E-001 +4.9305579487E-001 -7.2167248228E-001 +2.0053226563E-001 +2.5063576016E-001
110600000000.000 +2.6202711774E-001 +1.5380226223E-001 +4.5582345430E-001 -7.4524710059E-001 +4.8700836055E-001 -7.2155382717E-001 +1.9617036877E-001 +2.5010124334E-001
110700000000.000 +2.6001418685E-001 +1.5306145911E-001 +4.4574173669E-001 -7.5568964644E-001 +4.7933320027E-001 -7.2998207669E-001 +2.0243096678E-001 +2.5322601198E-001
110800000000.000 +2.6468375597E-001 +1.5388773193E-001 +4.3356724410E-001 -7.5746676006E-001 +4.6997485187E-001 -7.3394236742E-001 +2.0611536341E-001 +2.4598133823E-001
110900000000.000 +2.6455107857E-001 +1.4900218304E-001 +4.2884421148E-001 -7.6406040979E-001 +4.6368231777E-001 -7.4028689168E-001 +2.0790038183E-001 +2.5019303409E-001
111000000000.000 +2.6681248929E-001 +1.5100281916E-001 +4.1674612470E-001 -7.6903747901E-001 +4.5263271531E-001 -7.4657581037E-001 +2.1425157428E-001 +2.4378827357E-001
111100000000.000 +2.6874009706E-001 +1.4747414402E-001 +4.1253435983E-001 -7.7170208229E-001 +4.4448674666E-001 -7.5094202176E-001 +2.1098820348E-001 +2.4446794408E-001
111200000000.000 +2.6713637729E-001 +1.4592411717E-001 +4.0119181632E-001 -7.7887146227E-001 +4.3312679981E-001 -7.5952081190E-001 +2.1983602769E-001 +2.4284670796E-001
111300000000.000 +2.7360643264E-001 +1.4214951104E-001 +3.9137901893E-001 -7.8107321318E-001 +4.2370917507E-001 -7.5986628253E-001 +2.1735959457E-001 +2.4008534785E-001
111400000000.000 +2.7102564443E-001 +1.3854775716E-001 +3.7893180834E-001 -7.8866787289E-001 +4.1565118039E-001 -7.6597677070E-001 +2.2470159957E-001 +2.3887534970E-001
111500000000.000 +2.7566751889E-001 +1.3969689350E-001 +3.7011346496E-001 -7.9237664241E-001 +4.0540205603E-001 -7.6784098070E-001 +2.2689202963E-001 +2.3598652886E-001
111600000000.000 +2.7625400918E-001 +1.3134423648E-001 +3.6085540490E-001 -7.9630860607E-001 +3.9765600077E-001 -7.7357858029E-001 +2.2655844833E-001 +2.3934195101E-001
111700000000.000 +2.7828250734E-001 +1.3545480497E-001 +3.4846014035E-001 -8.0218212016E-001 +3.8691437128E-001 -7.8030836418E-001 +2.3326113618E-001 +2.3565580722E-001
111800000000.000 +2.8013317774E-001 +1.3061573681E-001 +3.4013705443E-001 -8.0673278103E-001 +3.7842461181E-001 -7.8298205055E-001 +2.2812357939E-001 +2.3746678893E-001
111900000000.000 +2.7954133344E-001 +1.2884461633E-001 +3.2895548565E-001 -8.1120840375E-001 +3.6826066811E-001 -7.9148517913E-001 +2.3731705039E-001 +2.3568841220E-001
112000000000.000 +2.8472006536E-001 +1.2886903576E-001 +3.2322442521E-001 -8.1358917283E-001 +3.5756318919E-001 -7.9329624358E-001 +2.3300034636E-001 +2.3421504989E-001
112100000000.000 +2.8063091237E-001 +1.2438545802E-001 +3.1196480239E-001 -8.1723265654E-001 +3.4947958716E-001 -7.9787069989E-001 +2.3802452971E-001 +2.3194077512E-001
112200000000.000 +2.8600181480E-001 +1.2503940892E-001 +3.0117395237E-001 -8.2059450666E-001 +3.4056650009E-001 -8.0025695299E-001 +2.4324221625E-001 +2.2605706951E-001
112300000000.000 +2.8616415735E-001 +1.1971516361E-001 +2.9049173440E-001 -8.2243940566E-001 +3.3243934992E-001 -8.0270820591E-001 +2.4521988754E-001 +2.2603724626E-001
112400000000.000 +2.8659724731E-001 +1.2207295609E-001 +2.8036209812E-001 -8.2886924275E-001 +3.2258315169E-001 -8.0855179742E-001 +2.4986628768E-001 +2.2336930844E-001
112500000000.000 +2.8780129813E-001 +1.1620848374E-001 +2.7137997468E-001 -8.2878967953E-001 +3.1455891285E-001 -8.0813582107E-001 +2.4853683181E-001 +2.1973910118E-001
112600000000.000 +2.8710705153E-001 +1.1378683646E-001 +2.5826132508E-001 -8.3403948877E-001 +3.0561895637E-001 -8.1558323652E-001 +2.5692702445E-001 +2.1760883557E-001
112700000000.000 +2.9075612178E-001 +1.1247991747E-001 +2.4782888015E-001 -8.3604520913E-001 +2.9342288170E-001 -8.1593383280E-001 +2.5522049565E-001 +2.1462735785E-001
112800000000.000 +2.8914342114E-001 +1.0660915833E-001 +2.3794982938E-001 -8.3844196417E-001 +2.8365122019E-001 -8.2262178377E-001 +2.5862200754E-001 +2.1448660468E-001
112900000000.000 +2.9196348959E-001 +1.0752193285E-001 +2.2826708565E-001 -8.4154399913E-001 +2.6980600707E-001 -8.2603227076E-001 +2.6283829481E-001 +2.1001925093E-001
113000000000.000 +2.9273567351E-001 +1.0016379407E-001 +2.1865220590E-001 -8.4281789595E-001 +2.6235364432E-001 -8.2699790941E-001 +2.6140660418E-001 +2.1090566400E-001
113100000000.000 +2.9211677627E-001 +1.0161109712E-001 +2.0700662308E-001 -8.4676890160E-001 +2.4938481423E-001 -8.3243899749E-001 +2.6684058816E-001 +2.0769087221E-001
113200000000.000 +2.9494327615E-001 +9.7737035203E-002 +1.9958778173E-001 -8.4793500260E-001 +2.4178679862E-001 -8.3255409020E-001 +2.6373788137E-001 +2.0625060981E-001
113300000000.000 +2.9250278283E-001 +9.6135734742E-002 +1.8904853216E-001 -8.5015582772E-001 +2.2982198582E-001 -8.3878061029E-001 +2.6824701922E-001 +2.0648585875E-001
113400000000.000 +2.9634569110E-001 +9.4591767232E-002 +1.7886154996E-001 -8.5288228646E-001 +2.2194927364E-001 -8.3828061957E-001 +2.6838426899E-001 +2.0120229115E-001
113500000000.000 +2.9366006810E-001 +9.0702898876E-002 +1.7007825933E-001 -8.5457122596E-001 +2.1182319965E-001 -8.4359983864E-001 +2.6750646341E-001 +2.0085864212E-001
113600000000.000 +2.9505892485E-001 +9.0650416607E-002 +1.5981308760E-001 -8.5661304977E-001 +2.0157597410E-001 -8.4315286142E-001 +2.7089252609E-001 +1.9440833048E-001
113700000000.000 +2.9586595609E-001 +8.3606386561E-002 +1.5016016627E-001 -8.5691847873E-001 +1.9288678046E-001 -8.4620464214E-001 +2.7175636334E-001 +1.8922898718E-001
113800000000.000 +2.9419226778E-001 +8.5104715069E-002 +1.3907735121E-001 -8.5887707205E-001 +1.8071925824E-001 -8.4990013231E-001 +2.7492033550E-001 +1.9015878093E-001
113900000000.000 +2.9742888955E-001 +8.0061376524E-002 +1.2808921026E-001 -8.6233372570E-001 +1.7557307215E-001 -8.4840251923E-001 +2.7159955015E-001 +1.8291092994E-001
114000000000.000 +2.9435165838E-001 +7.5748218043E-002 +1.1857542323E-001 -8.6104830634E-001 +1.6164646432E-001 -8.5345051796E-001 +2.7728109274E-001 +1.7973807697E-001
114100000000.000 +2.9810973854E-001 +7.4417701045E-002 +1.0811092767E-001 -8.6253007820E-001 +1.5468085521E-001 -8.5047340159E-001 +2.7965426527E-001 +1.7503935520E-001
114200000000.000 +2.9503602695E-001 +6.9982183597E-002 +9.7981937274E-002 -8.6492311620E-001 +1.4445974371E-001 -8.5606099045E-001 +2.7771065139E-001 +1.7622353892E-001
114300000000.000 +2.9797891664E-001 +6.7721727594E-002 +8.7010093509E-002 -8.6458963115E-001 +1.3337751689E-001 -8.5585871461E-001 +2.8303539996E-001 +1.6977631210E-001
114400000000.000 +2.9845036491E-001 +6.3163031000E-002 +7.8077312816E-002 -8.6626817040E-001 +1.2230806617E-001 -8.5691648453E-001 +2.8333832091E-001 +1.6904462983E-001
114500000000.000 +2.9748301758E-001 +6.2827600529E-002 +6.8998431921E-002 -8.6707118151E-001 +1.0845914248E-001 -8.6018370053E-001 +2.8366581845E-001 +1.7055530065E-001
114600000000.000 +2.9907017169E-001 +6.0374864930E-002 +5.9580642426E-002 -8.6889726283E-001 +1.0128650889E-001 -8.6140764185E-001 +2.8334391467E-001 +1.6596292931E-001
114700000000.000 +2.9721074886E-001 +5.5907733182E-002 +4.8543961535E-002 -8.6891984165E-001 +8.8309246802E-002 -8.6375107990E-001 +2.8273171485E-001 +1.6441115986E-001
114800000000.000 +2.9874723840E-001 +5.5563921930E-002 +3.8923023735E-002 -8.6919678113E-001 +8.1199532256E-002 -8.6307156605E-001 +2.8640799057E-001 +1.6212435175E-001
114900000000.000 +2.9794012113E-001 +5.0506119687E-002 +2.8723734876E-002 -8.7096030073E-001 +6.8189668571E-002 -8.6661913272E-001 +2.8177042209E-001 +1.5688889394E-001
115000000000.000 +2.9737079208E-001 +4.9071388304E-002 +1.9296595775E-002 -8.6885795942E-001 +6.0313711666E-002 -8.6509050724E-001 +2.8661123657E-001 +1.5191005012E-001
115100000000.000 +2.9760009465E-001 +4.2954009457E-002 +9.0207135140E-003 -8.7055228416E-001 +5.0591887750E-002 -8.6492861031E-001 +2.8494852867E-001 +1.4150051257E-001
115200000000.000 +2.9572852871E-001 +3.9986058404E-002 -4.5674448281E-004 -8.6892714800E-001 +3.7031964758E-002 -8.6758780185E-001 +2.8883726140E-001 +1.4220616770E-001
115300000000.000 +2.9515989406E-001 +3.8206028634E-002 -8.3442218898E-003 -8.6957912003E-001 +3.0734932409E-002 -8.6533161967E-001 +2.8454273566E-001 +1.3557720202E-001
115400000000.000 +2.9321888342E-001 +3.2568579863E-002 -1.7954674008E-002 -8.6850326837E-001 +1.4717701405E-002 -8.6695181962E-001 +2.8939602252E-001 +1.3210442991E-001
115500000000.000 +2.9262127626E-001 +3.1973383823E-002 -2.7427399032E-002 -8.6861923802E-001 +6.5761917875E-003 -8.6535238389E-001 +2.8872594073E-001 +1.3131842443E-001
115600000000.000 +2.9165027940E-001 +2.8400980529E-002 -3.9976467789E-002 -8.6773897266E-001 -3.2990704279E-003 -8.6656626483E-001 +2.8842546754E-001 +1.2775698267E-001
115700000000.000 +2.9079750397E-001 +2.4033630377E-002 -4.9201715050E-002 -8.6676204178E-001 -1.3941090103E-002 -8.6633689335E-001 +2.8673524892E-001 +1.2518034307E-001
115800000000.000 +2.9075331325E-001 +2.1642664446E-002 -5.9322842989E-002 -8.6465958462E-001 -2.1493664170E-002 -8.6610955228E-001 +2.9179796383E-001 +1.2014677598E-001
115900000000.000 +2.9069621334E-001 +1.8430337290E-002 -7.1508073261E-002 -8.6594320117E-001 -3.3771559657E-002 -8.6720244002E-001 +2.8988989893E-001 +1.2200043999E-001
116000000000.000 +2.8731992755E-001 +1.9686535925E-002 -8.2220848412E-002 -8.6457666580E-001 -4.1236780067E-002 -8.6643205007E-001 +2.8745726928E-001 +1.2106450835E-001
116100000000.000 +2.8738868073E-001 +1.3532799482E-002 -9.1488955745E-002 -8.6468420254E-001 -5.3794635408E-002 -8.6608766569E-001 +2.8470946383E-001 +1.1617843791E-001
116200000000.000 +2.8552084520E-001 +1.3829947508E-002 -1.0111016232E-001 -8.6350490591E-001 -6.4325458253E-002 -8.6505545509E-001 +2.8858277176E-001 +1.1368116723E-001
116300000000.000 +2.8599803837E-001 +1.0184444422E-002 -1.1200914086E-001 -8.6223660869E-001 -7.3633687487E-002 -8.6611824234E-001 +2.8297499265E-001 +1.1247886904E-001
116400000000.000 +2.8219859389E-001 +7.5336386601E-003 -1.2110139472E-001 -8.6148908986E-001 -8.4540603561E-002 -8.6487149605E-001 +2.8568430024E-001 +1.0606731268E-001
116500000000.000 +2.8211285971E-001 +5.4990299328E-003 -1.3057207725E-001 -8.5947887579E-001 -9.1221138963E-002 -8.6345499955E-001 +2.7953540602E-001 +1.0216726926E-001
116600000000.000 +2.7954413609E-001 +1.2646033042E-003 -1.3911886963E-001 -8.5844402465E-001 -1.0401940847E-001 -8.6280432731E-001 +2.8578862148E-001 +9.2543049226E-002
116700000000.000 +2.7715400052E-001 +1.0735597288E-003 -1.5031670544E-001 -8.5797171299E-001 -1.1417679124E-001 -8.6207598818E-001 +2.7744249756E-001 +9.5423125695E-002
116800000000.000 +2.7632072263E-001 -5.2107046387E-003 -1.5952631155E-001 -8.5427860348E-001 -1.2226126481E-001 -8.5959318873E-001 +2.8298556053E-001 +8.3607492834E-002
116900000000.000 +2.7378195504E-001 -5.6791052674E-003 -1.7081021967E-001 -8.5390710102E-001 -1.3342522784E-001 -8.5986154290E-001 +2.7914087540E-001 +8.2990235871E-002
117000000000.000 +2.7277790576E-001 -9.0879626679E-003 -1.8132863474E-001 -8.4990150677E-001 -1.4307968801E-001 -8.5655118907E-001 +2.8597181486E-001 +8.0146754384E-002
117100000000.000 +2.7017414797E-001 -1.0708318408E-002 -1.9074867521E-001 -8.5061602988E-001 -1.5500703584E-001 -8.5575282727E-001 +2.7808731225E-001 +7.9040577844E-002
117200000000.000 +2.6984893606E-001 -1.2449781554E-002 -2.0109038701E-001 -8.4658667990E-001 -1.6462119139E-001 -8.5354278873E-001 +2.8118228814E-001 +7.8841818123E-002
117300000000.000 +2.6745825422E-001 -1.4803400245E-002 -2.1038210123E-001 -8.4490316780E-001 -1.7436792918E-001 -8.5346154500E-001 +2.7640586346E-001 +7.2881942093E-002
117400000000.000 +2.6489232989E-001 -1.6533679563E-002 -2.2247697744E-001 -8.4346935954E-001 -1.8621538318E-001 -8.5016290820E-001 +2.7726280281E-001 +7.6659086430E-002
117500000000.000 +2.6403213949E-001 -1.7222141560E-002 -2.3125026833E-001 -8.4192101016E-001 -1.9595701185E-001 -8.4908071472E-001 +2.7036709171E-001 +7.4378729016E-002
117600000000.000 +2.6065513601E-001 -2.0450950136E-002 -2.4125715481E-001 -8.3865297169E-001 -2.0639887709E-001 -8.4640602815E-001 +2.7244029781E-001 +7.0984863383E-002
117700000000.000 +2.5967402506E-001 -2.1037520542E-002 -2.5043252623E-001 -8.3758249175E-001 -2.1516499518E-001 -8.4456318640E-001 +2.6805411173E-001 +6.6582044012E-002
117800000000.000 +2.5791404912E-001 -2.2724919646E-002 -2.5998404129E-001 -8.3338920094E-001 -2.2430508652E-001 -8.4254362988E-001 +2.6838815145E-001 +6.6228046062E-002
117900000000.000 +2.5392910058E-001 -2.3947340851E-002 -2.7033666618E-001 -8.3198408926E-001 -2.3513507415E-001 -8.4072762094E-001 +2.6328338063E-001 +5.7903391901E-002
118000000000.000 +2.5313336322E-001 -2.5913328805E-002 -2.7928709057E-001 -8.2817483810E-001 -2.4344946512E-001 -8.3677443027E-001 +2.6164695357E-001 +5.9409391516E-002
118100000000.000 +2.5032535131E-001 -2.8735117899E-002 -2.8931850059E-001 -8.2423584895E-001 -2.5406436961E-001 -8.3506576583E-001 +2.6585908321E-001 +4.6666009673E-002
118200000000.000 +2.4849000342E-001 -2.8637958545E-002 -2.9999004471E-001 -8.2262612176E-001 -2.6497466865E-001 -8.3267597913E-001 +2.5796445777E-001 +5.4161304324E-002
118300000000.000 +2.4510001617E-001 -3.2850417593E-002 -3.0947089523E-001 -8.1752175806E-001 -2.7525709608E-001 -8.3022162369E-001 +2.6447539192E-001 +4.2704867850E-002
118400000000.000 +2.4324147536E-001 -3.4211584540E-002 -3.1989203555E-001 -8.1766251527E-001 -2.8627636313E-001 -8.2667851429E-001 +2.5393499961E-001 +4.1742795913E-002
118500000000.000 +2.4096118980E-001 -3.5245639163E-002 -3.2930828967E-001 -8.1019009932E-001 -2.9581623546E-001 -8.2261504204E-001 +2.6352181557E-001 +3.8239022040E-002
118600000000.000 +2.3841328916E-001 -3.7122528745E-002 -3.4088606015E-001 -8.0895116600E-001 -3.0635212965E-001 -8.2184902416E-001 +2.5404597846E-001 +3.6787002408E-002
118700000000.000 +2.3529226952E-001 -3.8499173390E-002 -3.4882770148E-001 -8.0432628402E-001 -3.1568724916E-001 -8.1605825136E-001 +2.5506704460E-001 +3.4635539141E-002
118800000000.000 +2.3447917753E-001 -4.0926746093E-002 -3.5819863379E-001 -7.9938333156E-001 -3.2622261777E-001 -8.1420580615E-001 +2.5513448186E-001 +2.6484064715E-002
118900000000.000 +2.2973904522E-001 -4.1089559267E-002 -3.6981823897E-001 -7.9690171771E-001 -3.3746560578E-001 -8.0916904979E-001 +2.4894709692E-001 +3.0908492664E-002
119000000000.000 +2.2826327496E-001 -4.2530776375E-002 -3.7992823363E-001 -7.8948800984E-001 -3.4581533123E-001 -8.0686058532E-001 +2.4972101367E-001 +2.7787933123E-002
119100000000.000 +2.2378789418E-001 -4.3893462950E-002 -3.8933666772E-001 -7.8681294659E-001 -3.5588328812E-001 -8.0215345382E-001 +2.4234051729E-001 +2.4699630324E-002
119200000000.000 +2.2215965355E-001 -4.3354804207E-002 -3.9935256267E-001 -7.8136037230E-001 -3.6530934545E-001 -7.9820992347E-001 +2.4464977769E-001 +2.2710907693E-002
119300000000.000 +2.1845097810E-001 -4.4150820222E-002 -4.0848706623E-001 -7.7549924999E-001 -3.7396275272E-001 -7.9391030132E-001 +2.3845766052E-001 +2.4902949510E-002
119400000000.000 +2.1425538381E-001 -4.4221771289E-002 -4.1829175295E-001 -7.7223335141E-001 -3.8435913015E-001 -7.8993569718E-001 +2.3574735014E-001 +2.0561144810E-002
119500000000.000 +2.1296536945E-001 -4.5557177262E-002 -4.2389079827E-001 -7.6601713282E-001 -3.9274330340E-001 -7.8355779138E-001 +2.2913465438E-001 +1.3778048201E-002
119600000000.000 +2.0757606626E-001 -4.8086895625E-002 -4.3528277779E-001 -7.6214028155E-001 -4.0251923561E-001 -7.8040684296E-001 +2.2782110594E-001 +8.0347969033E-003
119700000000.000 +2.0658156205E-001 -4.7001737499E-002 -4.4068995409E-001 -7.5671040125E-001 -4.1252587830E-001 -7.7578716608E-001 +2.2435042281E-001 +5.9904341766E-003
119800000000.000 +2.0268061225E-001 -4.9158471083E-002 -4.5413674377E-001 -7.5054957287E-001 -4.2090134318E-001 -7.7074454213E-001 +2.2372669289E-001 +3.9706487298E-003
119900000000.000 +1.9922090709E-001 -4.7913096226E-002 -4.6037021362E-001 -7.4635291117E-001 -4.3027526160E-001 -7.6702056095E-001 +2.2030183987E-001 +1.5351722291E-003
120000000000.000 +1.9752928350E-001 -4.7505520659E-002 -4.7070166086E-001 -7.4049881417E-001 -4.4009153743E-001 -7.6085536764E-001 +2.1657165199E-001 +6.7487349102E-004
120100000000.000 +1.9331698580E-001 -4.9367829843E-002 -4.7943651269E-001 -7.3566759432E-001 -4.4960692987E-001 -7.5732152214E-001 +2.1673902507E-001 -4.2156899473E-003
120200000000.000 +1.9127529986E-001 -4.7980041625E-002 -4.8906963076E-001 -7.2916047110E-001 -4.6011694143E-001 -7.5165763154E-001 +2.1233660181E-001 -2.9718291156E-003
120300000000.000 +1.8782462336E-001 -4.9868608948E-002 -5.0051462496E-001 -7.2404564203E-001 -4.6922568556E-001 -7.4680240847E-001 +2.0848199437E-001 -4.1675197263E-003
120400000000.000 +1.8488590981E-001 -4.6793819756E-002 -5.0679840963E-001 -7.1937049080E-001 -4.8019520043E-001 -7.4071863446E-001 +2.0425482437E-001 -4.8993589749E-003
120500000000.000 +1.8323600412E-001 -4.7884703936E-002 -5.1731046502E-001 -7.1319734013E-001 -4.8819961445E-001 -7.3483862569E-001 +2.0684823747E-001 -3.7985654432E-003
120600000000.000 +1.7885788485E-001 -4.8390160221E-002 -5.2722480739E-001 -7.0830660692E-001 -4.9794584172E-001 -7.2971290171E-001 +1.9931081851E-001 -5.9326784974E-003
120700000000.000 +1.7568747953E-001 -4.5995701275E-002 -5.3729876080E-001 -7.0184547943E-001 -5.0705946677E-001 -7.2545167217E-001 +1.9344877549E-001 -5.2575732386E-003
120800000000.000 +1.7353336280E-001 -4.7428948460E-002 -5.4514398538E-001 -6.9486144608E-001 -5.1526673411E-001 -7.1933596514E-001 +1.9286061175E-001 -9.1244675745E-003
120900000000.000 +1.7088798449E-001 -4.6834959926E-002 -5.5474616238E-001 -6.9217334026E-001 -5.2630124487E-001 -7.1294409204E-001 +1.8670997731E-001 -9.5803907888E-003
121000000000.000 +1.6682200495E-001 -4.7851879582E-002 -5.6313052119E-001 -6.8098466464E-001 -5.3329005520E-001 -7.0701452402E-001 +1.8537928877E-001 -9.2187507153E-003
121100000000.000 +1.6271499872E-001 -4.5212734346E-002 -5.7075658994E-001 -6.7832064306E-001 -5.4393400025E-001 -7.0058014898E-001 +1.7569116679E-001 -1.5426774140E-002
121200000000.000 +1.6049199210E-001 -4.5135410850E-002 -5.8083130404E-001 -6.7192935325E-001 -5.5255871869E-001 -6.9166571951E-001 +1.7488689743E-001 -1.3160489806E-002
121300000000.000 +1.5783653307E-001 -4.3672750335E-002 -5.8925449930E-001 -6.6228726751E-001 -5.6133851307E-001 -6.8672914140E-001 +1.7311807155E-001 -1.6502025352E-002
121400000000.000 +1.5269537453E-001 -4.3695378782E-002 -5.9666367169E-001 -6.5660197004E-001 -5.6946193902E-001 -6.7943086358E-001 +1.6451642221E-001 -1.6529093757E-002
121500000000.000 +1.5164410005E-001 -4.1843979392E-002 -6.0632518341E-001 -6.4790843390E-001 -5.7828456477E-001 -6.7543583475E-001 +1.6732189057E-001 -1.7427272108E-002
