!  2-Port S-parameters saved by WinCal
! VAR NAME=CPW_A6
! VAR FILENAME=CPW_A6.S2P
! VAR DATE=10/12/2019 16:52:58
! VAR PHYS_PORTS=1,2
! VAR ObjTypeName=DATASET
! VAR IndexType=Frequency
!
# Hz S RI R 50
110000000000.000 +2.5126634339E-001 +2.0866302529E-001 +5.2780991106E-001 -6.9738085173E-001 +5.3953524189E-001 -6.8849562739E-001 +2.1974513643E-001 +2.5937832094E-001
110100000000.000 +2.5703745366E-001 +2.0976144416E-001 +5.1684517026E-001 -7.0156052862E-001 +5.2902463367E-001 -6.9151439882E-001 +2.2177254790E-001 +2.5788429506E-001
110200000000.000 +2.5891601934E-001 +2.0383914266E-001 +5.1139233321E-001 -7.0842010407E-001 +5.2501018778E-001 -6.9756938344E-001 +2.2226389897E-001 +2.6022290714E-001
110300000000.000 +2.6271204662E-001 +2.0543409415E-001 +4.9848923300E-001 -7.1539517979E-001 +5.1107915941E-001 -7.0742366944E-001 +2.2921444282E-001 +2.5479582120E-001
110400000000.000 +2.6729909417E-001 +2.0120987561E-001 +4.9465326061E-001 -7.1920073957E-001 +5.0587770094E-001 -7.0913048319E-001 +2.2523143401E-001 +2.5588248919E-001
110500000000.000 +2.6716713663E-001 +2.0175541876E-001 +4.8178404930E-001 -7.2951512712E-001 +4.9484580882E-001 -7.1859056768E-001 +2.3665573272E-001 +2.5397179205E-001
110600000000.000 +2.7419879641E-001 +2.0023973683E-001 +4.7572521881E-001 -7.3083616166E-001 +4.8882947742E-001 -7.1803805813E-001 +2.3249727290E-001 +2.5327756889E-001
110700000000.000 +2.7280783843E-001 +1.9913577082E-001 +4.6697133984E-001 -7.4140967063E-001 +4.8094250291E-001 -7.2771185702E-001 +2.3912863794E-001 +2.5532472495E-001
110800000000.000 +2.7779749586E-001 +2.0008146925E-001 +4.5440675234E-001 -7.4292670943E-001 +4.7215658772E-001 -7.2986978904E-001 +2.4271641459E-001 +2.4833888101E-001
110900000000.000 +2.7809508612E-001 +1.9521679518E-001 +4.4976379633E-001 -7.4954308976E-001 +4.6484354204E-001 -7.3709924022E-001 +2.4440082254E-001 +2.5236827609E-001
111000000000.000 +2.8035917321E-001 +1.9620482235E-001 +4.3785839191E-001 -7.5560477212E-001 +4.5529102899E-001 -7.4350772924E-001 +2.5086957054E-001 +2.4665306583E-001
111100000000.000 +2.8292753780E-001 +1.9192164107E-001 +4.3387722701E-001 -7.5787314286E-001 +4.4727563715E-001 -7.4697527607E-001 +2.4707602202E-001 +2.4695740230E-001
111200000000.000 +2.8120256549E-001 +1.8960827848E-001 +4.2273631325E-001 -7.6539693774E-001 +4.3525019897E-001 -7.5587019924E-001 +2.5554260662E-001 +2.4587209869E-001
111300000000.000 +2.8809599150E-001 +1.8642937010E-001 +4.1329460271E-001 -7.6740178677E-001 +4.2557661380E-001 -7.5580057209E-001 +2.5174776764E-001 +2.4319529278E-001
111400000000.000 +2.8670092899E-001 +1.8142069962E-001 +4.0253503771E-001 -7.7486871788E-001 +4.1688871366E-001 -7.6227505368E-001 +2.5942613354E-001 +2.4162494547E-001
111500000000.000 +2.9090728786E-001 +1.8243999652E-001 +3.9409471629E-001 -7.7787907769E-001 +4.0665460144E-001 -7.6592962882E-001 +2.6083774349E-001 +2.3893512141E-001
111600000000.000 +2.9235282519E-001 +1.7322572348E-001 +3.8494770493E-001 -7.8281830977E-001 +3.9932974288E-001 -7.7074998047E-001 +2.5975461815E-001 +2.4175200674E-001
111700000000.000 +2.9404187218E-001 +1.7692598123E-001 +3.7300085669E-001 -7.8939797592E-001 +3.8862089484E-001 -7.7800893655E-001 +2.6657642462E-001 +2.3717103015E-001
111800000000.000 +2.9713183212E-001 +1.7164040372E-001 +3.6569710789E-001 -7.9371844510E-001 +3.7982518035E-001 -7.8081760254E-001 +2.6121168696E-001 +2.3843200996E-001
111900000000.000 +2.9674242272E-001 +1.6972786261E-001 +3.5497975739E-001 -7.9813687781E-001 +3.6981164899E-001 -7.8912591547E-001 +2.7018166883E-001 +2.3650483926E-001
112000000000.000 +3.0207696127E-001 +1.6890241594E-001 +3.4839973821E-001 -8.0222447395E-001 +3.5987433567E-001 -7.9096678572E-001 +2.6529438839E-001 +2.3441480331E-001
112100000000.000 +2.9816797721E-001 +1.6433824065E-001 +3.3813981940E-001 -8.0474414389E-001 +3.5200031409E-001 -7.9620825527E-001 +2.7151891335E-001 +2.3239995182E-001
112200000000.000 +3.0386379257E-001 +1.6468107485E-001 +3.2802984967E-001 -8.0750020474E-001 +3.4148702930E-001 -7.9807681252E-001 +2.7650684072E-001 +2.2656816071E-001
112300000000.000 +3.0465283752E-001 +1.5859769040E-001 +3.1885220032E-001 -8.1002546351E-001 +3.3247307328E-001 -8.0123158618E-001 +2.7811857721E-001 +2.2660590089E-001
112400000000.000 +3.0427097328E-001 +1.6066401146E-001 +3.0901638869E-001 -8.1694416731E-001 +3.2214299108E-001 -8.0731606345E-001 +2.8269161462E-001 +2.2383433100E-001
112500000000.000 +3.0586818232E-001 +1.5424234846E-001 +2.9962624068E-001 -8.1708131801E-001 +3.1429242616E-001 -8.0749249747E-001 +2.8115494120E-001 +2.2083508852E-001
112600000000.000 +3.0566424269E-001 +1.5126993822E-001 +2.8765342538E-001 -8.2283375688E-001 +3.0388296282E-001 -8.1559062505E-001 +2.8897238198E-001 +2.1918503406E-001
112700000000.000 +3.0966694007E-001 +1.4950752172E-001 +2.8002882697E-001 -8.2472424234E-001 +2.9190827583E-001 -8.1586023435E-001 +2.8641783282E-001 +2.1606573934E-001
112800000000.000 +3.0796995932E-001 +1.4237889538E-001 +2.6937834447E-001 -8.2715304917E-001 +2.8288491486E-001 -8.2144424305E-001 +2.8985810599E-001 +2.1523946182E-001
112900000000.000 +3.1118074957E-001 +1.4294284843E-001 +2.5987016262E-001 -8.3091065752E-001 +2.6880989194E-001 -8.2510357091E-001 +2.9285378477E-001 +2.1052284553E-001
113000000000.000 +3.1226560408E-001 +1.3541741282E-001 +2.5014875815E-001 -8.3290880517E-001 +2.6264705245E-001 -8.2568132092E-001 +2.9187634725E-001 +2.1129859084E-001
113100000000.000 +3.1167018988E-001 +1.3635426615E-001 +2.3969765255E-001 -8.3616209720E-001 +2.4938173552E-001 -8.3207194661E-001 +2.9628992223E-001 +2.0755371949E-001
113200000000.000 +3.1484299755E-001 +1.3218824688E-001 +2.3109172000E-001 -8.3866991113E-001 +2.4025121423E-001 -8.3224173382E-001 +2.9430090561E-001 +2.0635939814E-001
113300000000.000 +3.1222075186E-001 +1.2957718236E-001 +2.2073093327E-001 -8.4137346842E-001 +2.3025759110E-001 -8.3731050158E-001 +2.9813426917E-001 +2.0592507823E-001
113400000000.000 +3.1629972931E-001 +1.2801229995E-001 +2.1089384683E-001 -8.4465218965E-001 +2.2147759195E-001 -8.3783324069E-001 +2.9824006324E-001 +2.0069204319E-001
113500000000.000 +3.1357886187E-001 +1.2328598753E-001 +2.0251093768E-001 -8.4663999993E-001 +2.1214646849E-001 -8.4295633301E-001 +2.9734929017E-001 +2.0016681338E-001
113600000000.000 +3.1505096303E-001 +1.2304969252E-001 +1.9261090147E-001 -8.4794515544E-001 +2.0144757601E-001 -8.4297257080E-001 +3.0083117369E-001 +1.9425677976E-001
113700000000.000 +3.1624659688E-001 +1.1529483683E-001 +1.8217475827E-001 -8.4915279343E-001 +1.9182527914E-001 -8.4486104897E-001 +3.0149742892E-001 +1.8951886480E-001
113800000000.000 +3.1430354367E-001 +1.1553820108E-001 +1.7148333777E-001 -8.5206731319E-001 +1.8077360911E-001 -8.4878131113E-001 +3.0376157027E-001 +1.9054632407E-001
113900000000.000 +3.1737022400E-001 +1.1148864407E-001 +1.6146282419E-001 -8.5465176674E-001 +1.7602485005E-001 -8.4711759757E-001 +3.0155266214E-001 +1.8340694134E-001
114000000000.000 +3.1477735555E-001 +1.0528872478E-001 +1.5150637873E-001 -8.5529234460E-001 +1.6186228399E-001 -8.5175813577E-001 +3.0620590296E-001 +1.8101402123E-001
114100000000.000 +3.1853939773E-001 +1.0367688998E-001 +1.4136672733E-001 -8.5637617472E-001 +1.5367655664E-001 -8.4902023936E-001 +3.0827306400E-001 +1.7598905679E-001
114200000000.000 +3.1552637664E-001 +9.8195395515E-002 +1.3109011117E-001 -8.5980900119E-001 +1.4350929981E-001 -8.5469031038E-001 +3.0575282092E-001 +1.7715370933E-001
114300000000.000 +3.1844369842E-001 +9.5581183159E-002 +1.1980386777E-001 -8.5988005949E-001 +1.3419782664E-001 -8.5475057681E-001 +3.1037636517E-001 +1.7099187952E-001
114400000000.000 +3.1910286501E-001 +9.0453962757E-002 +1.1155244823E-001 -8.6215910901E-001 +1.2267508694E-001 -8.5550181749E-001 +3.1023999627E-001 +1.6986407686E-001
114500000000.000 +3.1824599652E-001 +8.9430665107E-002 +1.0195959123E-001 -8.6232698394E-001 +1.0965976787E-001 -8.5899074750E-001 +3.1072351348E-001 +1.7080830368E-001
114600000000.000 +3.1919782869E-001 +8.6641171856E-002 +9.2976959091E-002 -8.6542032913E-001 +1.0262381508E-001 -8.5907287765E-001 +3.1053182361E-001 +1.6606216163E-001
114700000000.000 +3.1816341819E-001 +8.1659900664E-002 +8.1579878759E-002 -8.6568102620E-001 +9.0007115481E-002 -8.6247791768E-001 +3.0984201218E-001 +1.6458960823E-001
114800000000.000 +3.1963909071E-001 +8.0597449558E-002 +7.1991510319E-002 -8.6696861836E-001 +8.2512466943E-002 -8.6102001484E-001 +3.1345773689E-001 +1.6233449219E-001
114900000000.000 +3.1926807936E-001 +7.4819173872E-002 +6.1710668477E-002 -8.6935297364E-001 +6.9955924056E-002 -8.6546637576E-001 +3.0900510390E-001 +1.5730399963E-001
115000000000.000 +3.1815174233E-001 +7.3038829378E-002 +5.2499813412E-002 -8.6600277169E-001 +6.2634805567E-002 -8.6377544005E-001 +3.1413373938E-001 +1.5270861826E-001
115100000000.000 +3.1848820932E-001 +6.6338328606E-002 +4.2360037105E-002 -8.6871365645E-001 +5.3890619919E-002 -8.6441261495E-001 +3.1159349796E-001 +1.4280527034E-001
115200000000.000 +3.1659646424E-001 +6.2576546972E-002 +3.1825298955E-002 -8.6733700997E-001 +3.9730979458E-002 -8.6609580529E-001 +3.1527951606E-001 +1.4368715277E-001
115300000000.000 +3.1562417782E-001 +6.0264364282E-002 +2.4187775032E-002 -8.6803915002E-001 +3.3991079427E-002 -8.6409615733E-001 +3.1020214559E-001 +1.3728330956E-001
115400000000.000 +3.1383047710E-001 +5.3634688455E-002 +1.3536557589E-002 -8.6760340606E-001 +1.8616107831E-002 -8.6604843693E-001 +3.1532081150E-001 +1.3422098708E-001
115500000000.000 +3.1314952146E-001 +5.1947625592E-002 +3.1581728148E-003 -8.6803173426E-001 +1.0437270753E-002 -8.6392966708E-001 +3.1404096459E-001 +1.3307520946E-001
115600000000.000 +3.1202157402E-001 +4.7816739942E-002 -9.4563453286E-003 -8.6800503709E-001 +1.0775215244E-003 -8.6653613108E-001 +3.1375181026E-001 +1.2958900844E-001
115700000000.000 +3.1117897065E-001 +4.2678684623E-002 -1.8374650475E-002 -8.6780218926E-001 -9.8291627236E-003 -8.6604533971E-001 +3.1177059226E-001 +1.2730725883E-001
115800000000.000 +3.1104890172E-001 +3.9667691703E-002 -2.8046494756E-002 -8.6597293213E-001 -1.7730022428E-002 -8.6536440216E-001 +3.1601649955E-001 +1.2235058781E-001
115900000000.000 +3.1112662879E-001 +3.5843361552E-002 -4.0237707954E-002 -8.6726082860E-001 -3.0514974041E-002 -8.6692221315E-001 +3.1434688972E-001 +1.2371923010E-001
116000000000.000 +3.0735066791E-001 +3.6393585372E-002 -4.9885930165E-002 -8.6659719747E-001 -3.8175795437E-002 -8.6529968421E-001 +3.1142689132E-001 +1.2271945315E-001
116100000000.000 +3.0775474292E-001 +2.9948635693E-002 -5.8679388862E-002 -8.6673877706E-001 -5.0110635198E-002 -8.6716668133E-001 +3.0907512801E-001 +1.1814875045E-001
116200000000.000 +3.0558323253E-001 +2.8891752349E-002 -6.9927726404E-002 -8.6635552117E-001 -5.9981202781E-002 -8.6490738213E-001 +3.1262297716E-001 +1.1600944760E-001
116300000000.000 +3.0574082065E-001 +2.5079178738E-002 -8.0815093605E-002 -8.6509959257E-001 -6.8628902495E-002 -8.6586978598E-001 +3.0722358354E-001 +1.1458921780E-001
116400000000.000 +3.0183764779E-001 +2.1317079541E-002 -8.9724340239E-002 -8.6527052006E-001 -7.9097454255E-002 -8.6379244864E-001 +3.0981020864E-001 +1.0901969234E-001
116500000000.000 +3.0108637318E-001 +1.8889852406E-002 -9.9407885607E-002 -8.6343046068E-001 -8.6909694949E-002 -8.6364724028E-001 +3.0384932347E-001 +1.0504602144E-001
116600000000.000 +2.9837564992E-001 +1.3929652570E-002 -1.0801648560E-001 -8.6249247341E-001 -9.8969277677E-002 -8.6205933144E-001 +3.0902963253E-001 +9.6394705723E-002
116700000000.000 +2.9556104904E-001 +1.2972550019E-002 -1.1917348095E-001 -8.6260173718E-001 -1.0849006596E-001 -8.6223595027E-001 +3.0091172433E-001 +9.9340263779E-002
116800000000.000 +2.9427367548E-001 +6.2754845154E-003 -1.2837523160E-001 -8.5840778044E-001 -1.1581087322E-001 -8.5935040706E-001 +3.0566531865E-001 +8.8527740210E-002
116900000000.000 +2.9161824918E-001 +4.4047794729E-003 -1.3954843591E-001 -8.5928420105E-001 -1.2835459173E-001 -8.6028080783E-001 +3.0167252125E-001 +8.7771378506E-002
117000000000.000 +2.9034609489E-001 +6.8439907825E-004 -1.4969291954E-001 -8.5564218182E-001 -1.3668275794E-001 -8.5685522439E-001 +3.0803145080E-001 +8.5086588216E-002
117100000000.000 +2.8731720993E-001 -1.7708436150E-003 -1.5966512367E-001 -8.5674523703E-001 -1.4936426583E-001 -8.5648972832E-001 +2.9997941717E-001 +8.3716621731E-002
117200000000.000 +2.8647601715E-001 -4.1225224092E-003 -1.7124288756E-001 -8.5320028107E-001 -1.5848515482E-001 -8.5511060950E-001 +3.0331650105E-001 +8.3228854420E-002
117300000000.000 +2.8400280248E-001 -6.8811620848E-003 -1.7889744863E-001 -8.5231368978E-001 -1.6784953697E-001 -8.5402986075E-001 +2.9812061933E-001 +7.7919337883E-002
117400000000.000 +2.8099715762E-001 -9.1168520332E-003 -1.9143846095E-001 -8.5086331312E-001 -1.7939625452E-001 -8.5145317850E-001 +2.9911996640E-001 +8.1479892967E-002
117500000000.000 +2.7956676997E-001 -1.0422779971E-002 -2.0052184292E-001 -8.4965295041E-001 -1.8930566605E-001 -8.5037414272E-001 +2.9213821291E-001 +7.9384672655E-002
117600000000.000 +2.7613886667E-001 -1.4093651357E-002 -2.1026962427E-001 -8.4709358071E-001 -1.9887133508E-001 -8.4741945982E-001 +2.9451531509E-001 +7.6354231971E-002
117700000000.000 +2.7435334622E-001 -1.5267352675E-002 -2.1989686429E-001 -8.4603493116E-001 -2.0847156627E-001 -8.4610204058E-001 +2.9006613042E-001 +7.2247447326E-002
117800000000.000 +2.7249687794E-001 -1.7419994411E-002 -2.2948427739E-001 -8.4240853022E-001 -2.1685801272E-001 -8.4407796594E-001 +2.9035433773E-001 +7.2411432571E-002
117900000000.000 +2.6757303113E-001 -1.9394212473E-002 -2.3992798160E-001 -8.4104096800E-001 -2.2803916657E-001 -8.4268685126E-001 +2.8536454070E-001 +6.4509668813E-002
118000000000.000 +2.6635753999E-001 -2.1433413573E-002 -2.4932701527E-001 -8.3857821755E-001 -2.3641740270E-001 -8.3866907023E-001 +2.8306889315E-001 +6.6406530958E-002
118100000000.000 +2.6315840073E-001 -2.5130680848E-002 -2.5992437423E-001 -8.3491444797E-001 -2.4696673773E-001 -8.3755460562E-001 +2.8742423729E-001 +5.4374154612E-002
118200000000.000 +2.6049716511E-001 -2.5289646859E-002 -2.6976807646E-001 -8.3356829672E-001 -2.5911946216E-001 -8.3499773463E-001 +2.7892069903E-001 +6.1561376659E-002
118300000000.000 +2.5642603741E-001 -2.9717687441E-002 -2.7977248931E-001 -8.2792162852E-001 -2.6790572803E-001 -8.3271980779E-001 +2.8532829981E-001 +5.0802744752E-002
118400000000.000 +2.5396014472E-001 -3.1906529008E-002 -2.9011569997E-001 -8.2931778351E-001 -2.7911461961E-001 -8.3049755836E-001 +2.7510709536E-001 +4.9836493655E-002
118500000000.000 +2.5152873307E-001 -3.3258535891E-002 -3.0073705216E-001 -8.2188463549E-001 -2.8630935227E-001 -8.2528854092E-001 +2.8372715524E-001 +4.6995044561E-002
118600000000.000 +2.4822185924E-001 -3.5739357273E-002 -3.1140973430E-001 -8.2148350094E-001 -3.0011953982E-001 -8.2441449273E-001 +2.7413762331E-001 +4.5456478006E-002
118700000000.000 +2.4461178786E-001 -3.7183888503E-002 -3.2026119662E-001 -8.1798725874E-001 -3.0833099033E-001 -8.1941823099E-001 +2.7513515633E-001 +4.3104411504E-002
118800000000.000 +2.4360882555E-001 -3.9787207155E-002 -3.2915079219E-001 -8.1281490519E-001 -3.1935223712E-001 -8.1790215463E-001 +2.7502888709E-001 +3.5177423680E-002
118900000000.000 +2.3767040646E-001 -4.0371399156E-002 -3.4133550402E-001 -8.0955746442E-001 -3.2981229345E-001 -8.1336942385E-001 +2.6885723017E-001 +3.9740023190E-002
119000000000.000 +2.3610064060E-001 -4.1753032463E-002 -3.5080775764E-001 -8.0354688472E-001 -3.3898225875E-001 -8.1046481689E-001 +2.6990367823E-001 +3.6981348041E-002
119100000000.000 +2.3137677179E-001 -4.3940651579E-002 -3.6030531761E-001 -8.0177128888E-001 -3.4927919304E-001 -8.0584458251E-001 +2.6237769088E-001 +3.4108547501E-002
119200000000.000 +2.2936610927E-001 -4.3097012944E-002 -3.7072301445E-001 -7.9645700063E-001 -3.5755014184E-001 -8.0284485276E-001 +2.6501680178E-001 +3.2368876580E-002
119300000000.000 +2.2513324484E-001 -4.4508913389E-002 -3.8061128638E-001 -7.9060488747E-001 -3.6653202836E-001 -7.9849022898E-001 +2.5855852500E-001 +3.5218004372E-002
119400000000.000 +2.1976542442E-001 -4.4592841998E-002 -3.9111465319E-001 -7.8782316024E-001 -3.7678177591E-001 -7.9503191408E-001 +2.5570976398E-001 +3.1435776151E-002
119500000000.000 +2.1839218663E-001 -4.6057862469E-002 -3.9590128516E-001 -7.8238301204E-001 -3.8396728110E-001 -7.8868927648E-001 +2.4925620127E-001 +2.5983892439E-002
119600000000.000 +2.1171783672E-001 -4.8847806258E-002 -4.0807484796E-001 -7.7764030023E-001 -3.9432615036E-001 -7.8598546531E-001 +2.4775191409E-001 +2.0054600009E-002
119700000000.000 +2.1034290752E-001 -4.8126942780E-002 -4.1442184670E-001 -7.7283137513E-001 -4.0485814162E-001 -7.8171334796E-001 +2.4374462640E-001 +1.8564895090E-002
119800000000.000 +2.0586393450E-001 -5.0482229174E-002 -4.2845451100E-001 -7.6700532067E-001 -4.1378532851E-001 -7.7603568103E-001 +2.4259739373E-001 +1.6255876700E-002
119900000000.000 +2.0140233398E-001 -4.9706927750E-002 -4.3535364640E-001 -7.6234744230E-001 -4.2287926870E-001 -7.7360247739E-001 +2.3932014254E-001 +1.4444633217E-002
120000000000.000 +1.9893383548E-001 -4.9522776498E-002 -4.4645126647E-001 -7.5653541837E-001 -4.3231374934E-001 -7.6783353553E-001 +2.3558517389E-001 +1.3152180355E-002
120100000000.000 +1.9475186260E-001 -5.1897208903E-002 -4.5602615202E-001 -7.5303232564E-001 -4.4138520390E-001 -7.6441034171E-001 +2.3532713329E-001 +8.6788920019E-003
120200000000.000 +1.9202178009E-001 -5.0151283272E-002 -4.6557651553E-001 -7.4745245841E-001 -4.5227959372E-001 -7.6007936667E-001 +2.3156819125E-001 +9.7711153727E-003
120300000000.000 +1.8851990821E-001 -5.1525889456E-002 -4.7650583467E-001 -7.4291728126E-001 -4.6052838562E-001 -7.5426570188E-001 +2.2733811926E-001 +9.1938439072E-003
120400000000.000 +1.8450278998E-001 -4.8582899293E-002 -4.8321110819E-001 -7.3793759693E-001 -4.7065913292E-001 -7.4844768353E-001 +2.2350693374E-001 +7.6851566734E-003
120500000000.000 +1.8246867416E-001 -5.0107573627E-002 -4.9421274181E-001 -7.3172851150E-001 -4.8015282940E-001 -7.4276097258E-001 +2.2607423955E-001 +9.6649177257E-003
120600000000.000 +1.7808572025E-001 -5.0741026562E-002 -5.0466666756E-001 -7.2930172781E-001 -4.8884687219E-001 -7.3864968024E-001 +2.1916108237E-001 +8.0811772320E-003
120700000000.000 +1.7466667781E-001 -4.8899211954E-002 -5.1605504630E-001 -7.2285000886E-001 -4.9781948246E-001 -7.3215088352E-001 +2.1249053816E-001 +9.5372133795E-003
120800000000.000 +1.7105900328E-001 -5.0082450269E-002 -5.2386378351E-001 -7.1412479013E-001 -5.0762300258E-001 -7.2796160304E-001 +2.1235748108E-001 +5.4720698960E-003
120900000000.000 +1.6684128992E-001 -4.9123415737E-002 -5.3355119562E-001 -7.1081565800E-001 -5.1817544937E-001 -7.2142567732E-001 +2.0646573762E-001 +5.2332051560E-003
121000000000.000 +1.6317063849E-001 -5.0549367381E-002 -5.4339417599E-001 -7.0132931025E-001 -5.2560783212E-001 -7.1514959911E-001 +2.0426011679E-001 +6.2204045502E-003
121100000000.000 +1.5763001894E-001 -4.7931778230E-002 -5.5090407448E-001 -6.9840410416E-001 -5.3479465637E-001 -7.0979730413E-001 +1.9538871418E-001 +3.3490489515E-004
121200000000.000 +1.5459952752E-001 -4.7009467366E-002 -5.5912011025E-001 -6.9231340928E-001 -5.4484461523E-001 -7.0162601113E-001 +1.9435318511E-001 +2.5895746165E-003
121300000000.000 +1.5136691925E-001 -4.6615593459E-002 -5.7065802585E-001 -6.8232145594E-001 -5.5410590050E-001 -6.9730486090E-001 +1.9260757628E-001 -8.0419322227E-004
121400000000.000 +1.4536735237E-001 -4.6725875221E-002 -5.7815892027E-001 -6.7738427951E-001 -5.6263139551E-001 -6.8963393188E-001 +1.8377359517E-001 -2.8255704400E-004
121500000000.000 +1.4368117551E-001 -4.4395833562E-002 -5.8716872011E-001 -6.6883081405E-001 -5.7106879763E-001 -6.8517007070E-001 +1.8701072152E-001 -1.1614531497E-003
