!  2-Port S-parameters saved by WinCal
! VAR NAME=CPW_A2
! VAR FILENAME=CPW_A2.S2P
! VAR DATE=10/12/2019 16:28:33
! VAR PHYS_PORTS=1,2
! VAR ObjTypeName=DATASET
! VAR IndexType=Frequency
!
# Hz S RI R 50
110000000000.000 +2.1489483919E-001 +2.3482370879E-001 +4.7886996953E-001 -7.2835017379E-001 +4.9000861673E-001 -7.2134417564E-001 +2.4872309568E-001 +1.8637163554E-001
110100000000.000 +2.2105466593E-001 +2.3586539475E-001 +4.6976291525E-001 -7.3248600658E-001 +4.7887730680E-001 -7.2360222132E-001 +2.5019353031E-001 +1.8451692760E-001
110200000000.000 +2.2252535527E-001 +2.3013352078E-001 +4.6194559632E-001 -7.3880909565E-001 +4.7444318019E-001 -7.3051857274E-001 +2.5034105652E-001 +1.8541366442E-001
110300000000.000 +2.2682695701E-001 +2.3243023002E-001 +4.4941366014E-001 -7.4522601441E-001 +4.6007603644E-001 -7.3849294038E-001 +2.5652560572E-001 +1.8036392700E-001
110400000000.000 +2.3088429851E-001 +2.2784797950E-001 +4.4604737800E-001 -7.4860197389E-001 +4.5488233628E-001 -7.4035259827E-001 +2.5167237449E-001 +1.8104858789E-001
110500000000.000 +2.3057468869E-001 +2.2927805281E-001 +4.3220755007E-001 -7.5794054418E-001 +4.4303225189E-001 -7.4939504878E-001 +2.6120370947E-001 +1.7829717668E-001
110600000000.000 +2.3705408619E-001 +2.2691340375E-001 +4.2682740149E-001 -7.5897608911E-001 +4.3702156890E-001 -7.4889843757E-001 +2.5622752041E-001 +1.7763140425E-001
110700000000.000 +2.3536083916E-001 +2.2640032569E-001 +4.1623806457E-001 -7.6909331108E-001 +4.2885367045E-001 -7.5800704964E-001 +2.6175792391E-001 +1.7920170704E-001
110800000000.000 +2.4164850929E-001 +2.2700009140E-001 +4.0615354512E-001 -7.6999893569E-001 +4.2009078821E-001 -7.6001952419E-001 +2.6432641486E-001 +1.7185422019E-001
110900000000.000 +2.4087973400E-001 +2.2202810794E-001 +3.9974970062E-001 -7.7650502903E-001 +4.1204956314E-001 -7.6663156572E-001 +2.6489032666E-001 +1.7482781726E-001
111000000000.000 +2.4378317715E-001 +2.2403232052E-001 +3.8714655603E-001 -7.8098897562E-001 +4.0131561787E-001 -7.7297098069E-001 +2.7038651390E-001 +1.6833968113E-001
111100000000.000 +2.4576029819E-001 +2.1986429696E-001 +3.8244445690E-001 -7.8438775997E-001 +3.9436689717E-001 -7.7587406123E-001 +2.6581039147E-001 +1.6825366726E-001
111200000000.000 +2.4459970913E-001 +2.1806140910E-001 +3.7075289787E-001 -7.9080820123E-001 +3.8157531824E-001 -7.8315434214E-001 +2.7255183101E-001 +1.6630472170E-001
111300000000.000 +2.5118527660E-001 +2.1382304315E-001 +3.6130732226E-001 -7.9280086830E-001 +3.7298767674E-001 -7.8349164328E-001 +2.6967260433E-001 +1.6319293399E-001
111400000000.000 +2.4989604441E-001 +2.1062921188E-001 +3.4998504502E-001 -7.9859893003E-001 +3.6226825094E-001 -7.9047551319E-001 +2.7488154095E-001 +1.6148794626E-001
111500000000.000 +2.5492087248E-001 +2.1080956071E-001 +3.4123793880E-001 -8.0264230061E-001 +3.5293839470E-001 -7.9175467970E-001 +2.7541729948E-001 +1.5832787570E-001
111600000000.000 +2.5516307003E-001 +2.0256644953E-001 +3.3110276785E-001 -8.0729443834E-001 +3.4449994768E-001 -7.9716221098E-001 +2.7384046102E-001 +1.6082164455E-001
111700000000.000 +2.5761615147E-001 +2.0673069458E-001 +3.1936510138E-001 -8.1248833519E-001 +3.3322559610E-001 -8.0289778235E-001 +2.7955918748E-001 +1.5680264266E-001
111800000000.000 +2.5959882928E-001 +2.0122627060E-001 +3.1153889044E-001 -8.1639761963E-001 +3.2482773798E-001 -8.0565790798E-001 +2.7259111768E-001 +1.5772805111E-001
111900000000.000 +2.5956118256E-001 +1.9993170159E-001 +2.9949558481E-001 -8.1988160941E-001 +3.1451495957E-001 -8.1256698545E-001 +2.8041561491E-001 +1.5487953750E-001
112000000000.000 +2.6472787049E-001 +1.9947384344E-001 +2.9341642390E-001 -8.2284896857E-001 +3.0451157046E-001 -8.1473637321E-001 +2.7511281645E-001 +1.5407468536E-001
112100000000.000 +2.6118778775E-001 +1.9462287233E-001 +2.8228390135E-001 -8.2634116425E-001 +2.9438953868E-001 -8.1892923987E-001 +2.7906287209E-001 +1.5069598641E-001
112200000000.000 +2.6745540648E-001 +1.9501770099E-001 +2.7290355665E-001 -8.2858997161E-001 +2.8505652840E-001 -8.1980248552E-001 +2.8322028986E-001 +1.4434816792E-001
112300000000.000 +2.6759375182E-001 +1.8965105725E-001 +2.6188896528E-001 -8.3139497055E-001 +2.7612270291E-001 -8.2296387383E-001 +2.8365484215E-001 +1.4429655776E-001
112400000000.000 +2.6784195050E-001 +1.9151881565E-001 +2.5090392602E-001 -8.3674498656E-001 +2.6626081285E-001 -8.2759514768E-001 +2.8715500691E-001 +1.4137737621E-001
112500000000.000 +2.6999837899E-001 +1.8524194610E-001 +2.4238853908E-001 -8.3659142903E-001 +2.5832055311E-001 -8.2761202303E-001 +2.8452377149E-001 +1.3804763730E-001
112600000000.000 +2.7007792425E-001 +1.8308791601E-001 +2.2899033165E-001 -8.4155780497E-001 +2.4686470964E-001 -8.3299105302E-001 +2.9131609886E-001 +1.3536197729E-001
112700000000.000 +2.7397177269E-001 +1.8102258749E-001 +2.1941325020E-001 -8.4433120320E-001 +2.3733331950E-001 -8.3344854483E-001 +2.8737898415E-001 +1.3260377061E-001
112800000000.000 +2.7254909019E-001 +1.7449283973E-001 +2.0876519812E-001 -8.4553576116E-001 +2.2569504303E-001 -8.3990660185E-001 +2.9019911454E-001 +1.3227639852E-001
112900000000.000 +2.7584303019E-001 +1.7526740771E-001 +1.9899121682E-001 -8.4863755048E-001 +2.1299694094E-001 -8.4202682373E-001 +2.9166437008E-001 +1.2770351657E-001
113000000000.000 +2.7651749176E-001 +1.6772137783E-001 +1.8861499695E-001 -8.4991618538E-001 +2.0495538120E-001 -8.4307802170E-001 +2.8984038812E-001 +1.2841232203E-001
113100000000.000 +2.7660488997E-001 +1.6925354248E-001 +1.7768020950E-001 -8.5357219187E-001 +1.9290535012E-001 -8.4746388865E-001 +2.9319643657E-001 +1.2497173111E-001
113200000000.000 +2.7957031246E-001 +1.6455684802E-001 +1.6767508427E-001 -8.5530265951E-001 +1.8450210341E-001 -8.4753323802E-001 +2.8910240930E-001 +1.2402438164E-001
113300000000.000 +2.7741470175E-001 +1.6247388848E-001 +1.5758469132E-001 -8.5644951968E-001 +1.7251447907E-001 -8.5199209877E-001 +2.9233913715E-001 +1.2338323126E-001
113400000000.000 +2.8103229789E-001 +1.6078071581E-001 +1.4730112496E-001 -8.5900905211E-001 +1.6467627362E-001 -8.5183352960E-001 +2.9097597213E-001 +1.1877191768E-001
113500000000.000 +2.7880919135E-001 +1.5713599841E-001 +1.3913457413E-001 -8.5966989105E-001 +1.5420819783E-001 -8.5658996948E-001 +2.8902367990E-001 +1.1808344634E-001
113600000000.000 +2.8101508540E-001 +1.5605296347E-001 +1.2876209206E-001 -8.6226236568E-001 +1.4503497877E-001 -8.5577346714E-001 +2.9056341744E-001 +1.1232908405E-001
113700000000.000 +2.8174271428E-001 +1.4860383807E-001 +1.1861777333E-001 -8.6213140360E-001 +1.3527126256E-001 -8.5831106697E-001 +2.9050720055E-001 +1.0728770713E-001
113800000000.000 +2.8052918385E-001 +1.5012184741E-001 +1.0746830666E-001 -8.6345179066E-001 +1.2215375602E-001 -8.6048937660E-001 +2.9198747527E-001 +1.0911757707E-001
113900000000.000 +2.8331949356E-001 +1.4449020647E-001 +9.7140121452E-002 -8.6569465178E-001 +1.1678469802E-001 -8.5879084730E-001 +2.8782303797E-001 +1.0224522343E-001
114000000000.000 +2.8141959740E-001 +1.3975958301E-001 +8.6883653892E-002 -8.6539677269E-001 +1.0259536451E-001 -8.6198028441E-001 +2.9194905270E-001 +9.9355485363E-002
114100000000.000 +2.8542552953E-001 +1.3757480738E-001 +7.5301084595E-002 -8.6662544686E-001 +9.5065692136E-002 -8.5975477357E-001 +2.9283859726E-001 +9.5264681861E-002
114200000000.000 +2.8256062507E-001 +1.3302949051E-001 +6.5380003138E-002 -8.6844887839E-001 +8.3867344158E-002 -8.6458137643E-001 +2.8987145673E-001 +9.6445401754E-002
114300000000.000 +2.8568536925E-001 +1.3027552180E-001 +5.4692920163E-002 -8.6758802801E-001 +7.4635736025E-002 -8.6319910220E-001 +2.9252776568E-001 +9.0393034503E-002
114400000000.000 +2.8632708088E-001 +1.2509446331E-001 +4.5385375528E-002 -8.7014461565E-001 +6.2986550230E-002 -8.6371628063E-001 +2.9206666278E-001 +8.9690334049E-002
114500000000.000 +2.8585357426E-001 +1.2430809813E-001 +3.4626141057E-002 -8.6887556014E-001 +4.9810675996E-002 -8.6640604950E-001 +2.9131145778E-001 +9.1844940605E-002
114600000000.000 +2.8686007317E-001 +1.2120862394E-001 +2.6389068000E-002 -8.7167626918E-001 +4.3151282674E-002 -8.6607965302E-001 +2.8979029138E-001 +8.7634097479E-002
114700000000.000 +2.8576703391E-001 +1.1667671522E-001 +1.5183262305E-002 -8.7079144360E-001 +2.8923374229E-002 -8.6843850025E-001 +2.8788868547E-001 +8.6406640752E-002
114800000000.000 +2.8743470738E-001 +1.1507233472E-001 +5.1336652465E-003 -8.7146099711E-001 +2.1700590856E-002 -8.6657915050E-001 +2.9065740084E-001 +8.4687996656E-002
114900000000.000 +2.8690602234E-001 +1.0981053000E-001 -5.7537433726E-003 -8.7227151860E-001 +9.2303869574E-003 -8.7061296326E-001 +2.8492078081E-001 +8.0120011567E-002
115000000000.000 +2.8658364231E-001 +1.0767815146E-001 -1.4884665312E-002 -8.6941929318E-001 +1.0911154934E-003 -8.6788038615E-001 +2.8801546135E-001 +7.6090876725E-002
115100000000.000 +2.8699051487E-001 +1.0094971423E-001 -2.5014903017E-002 -8.7099443762E-001 -8.4604821889E-003 -8.6760456805E-001 +2.8520084019E-001 +6.6255511073E-002
115200000000.000 +2.8514079762E-001 +9.7798695703E-002 -3.4339083187E-002 -8.6869526252E-001 -2.3527277266E-002 -8.6909722784E-001 +2.8790474636E-001 +6.7396922080E-002
115300000000.000 +2.8433522845E-001 +9.4674333174E-002 -4.3517608452E-002 -8.6917888531E-001 -2.8766615234E-002 -8.6677861248E-001 +2.8274442172E-001 +6.2141219700E-002
115400000000.000 +2.8268686067E-001 +8.8744730254E-002 -5.3496974118E-002 -8.6794978630E-001 -4.4411808277E-002 -8.6723011210E-001 +2.8560724584E-001 +5.9208471673E-002
115500000000.000 +2.8203588734E-001 +8.7386887295E-002 -6.2505301581E-002 -8.6771213646E-001 -5.2307947344E-002 -8.6473218718E-001 +2.8380278271E-001 +5.9133834963E-002
115600000000.000 +2.8085693838E-001 +8.3029308084E-002 -7.5307064084E-002 -8.6698155468E-001 -6.3856429372E-002 -8.6627374728E-001 +2.8250247882E-001 +5.6384790934E-002
115700000000.000 +2.8028059961E-001 +7.8238802117E-002 -8.4450791519E-002 -8.6643719666E-001 -7.3619676448E-002 -8.6509459655E-001 +2.7955028643E-001 +5.4795460797E-002
115800000000.000 +2.8010937232E-001 +7.5180823990E-002 -9.4754392410E-002 -8.6322508963E-001 -8.1252681387E-002 -8.6411232401E-001 +2.8338880188E-001 +5.0181669445E-002
115900000000.000 +2.8019935439E-001 +7.1426799862E-002 -1.0696139209E-001 -8.6383295843E-001 -9.4442359877E-002 -8.6455866915E-001 +2.8063923940E-001 +5.2418598346E-002
116000000000.000 +2.7693493755E-001 +7.1983979723E-002 -1.1685732231E-001 -8.6224881547E-001 -1.0233691651E-001 -8.6318414765E-001 +2.7703208296E-001 +5.2948560793E-002
116100000000.000 +2.7662359829E-001 +6.5298784633E-002 -1.2726856312E-001 -8.6183772933E-001 -1.1449378002E-001 -8.6247334989E-001 +2.7336072004E-001 +4.8776160684E-002
116200000000.000 +2.7511629487E-001 +6.4933287585E-002 -1.3692632735E-001 -8.6048048581E-001 -1.2365932642E-001 -8.6014712423E-001 +2.7621044763E-001 +4.7065540282E-002
116300000000.000 +2.7525422887E-001 +6.0556935895E-002 -1.4750097977E-001 -8.5858035165E-001 -1.3334310086E-001 -8.6102081248E-001 +2.6969144384E-001 +4.7339632024E-002
116400000000.000 +2.7145033779E-001 +5.7279686403E-002 -1.5617204545E-001 -8.5821551330E-001 -1.4501428357E-001 -8.5832109524E-001 +2.7157555548E-001 +4.1656319895E-002
116500000000.000 +2.7092574921E-001 +5.4451952934E-002 -1.6646357330E-001 -8.5574401623E-001 -1.5200028239E-001 -8.5670996345E-001 +2.6435260908E-001 +3.9277639923E-002
116600000000.000 +2.6800805785E-001 +4.9882948544E-002 -1.7618485488E-001 -8.5322598891E-001 -1.6398351621E-001 -8.5501250398E-001 +2.6961827699E-001 +3.0124708668E-002
116700000000.000 +2.6570032573E-001 +4.8795314144E-002 -1.8716761982E-001 -8.5242211214E-001 -1.7390743289E-001 -8.5392169339E-001 +2.6001276931E-001 +3.4807035073E-002
116800000000.000 +2.6416099406E-001 +4.2171745460E-002 -1.9598888125E-001 -8.4793147173E-001 -1.8211841939E-001 -8.5051566526E-001 +2.6454784871E-001 +2.3822260310E-002
116900000000.000 +2.6189762571E-001 +4.1158785145E-002 -2.0784960905E-001 -8.4760666868E-001 -1.9388660084E-001 -8.4996934479E-001 +2.5922207378E-001 +2.4357726906E-002
117000000000.000 +2.6053122380E-001 +3.7122866798E-002 -2.1833402646E-001 -8.4349035369E-001 -2.0210494768E-001 -8.4663775081E-001 +2.6561067974E-001 +2.2423010332E-002
117100000000.000 +2.5766873576E-001 +3.5060539501E-002 -2.2813349066E-001 -8.4341567001E-001 -2.1509267300E-001 -8.4518690000E-001 +2.5666052722E-001 +2.2260346684E-002
117200000000.000 +2.5700089202E-001 +3.2527627744E-002 -2.3834318449E-001 -8.3948156910E-001 -2.2500263032E-001 -8.4202748819E-001 +2.5911565166E-001 +2.2951751837E-002
117300000000.000 +2.5449289899E-001 +2.9802325899E-002 -2.4698982388E-001 -8.3792724955E-001 -2.3449769970E-001 -8.4080071122E-001 +2.5340629221E-001 +1.8209423951E-002
117400000000.000 +2.5161841951E-001 +2.7532375672E-002 -2.5963295154E-001 -8.3522419119E-001 -2.4622204356E-001 -8.3738708247E-001 +2.5386729516E-001 +2.2957435932E-002
117500000000.000 +2.5045874689E-001 +2.6269000435E-002 -2.6781993372E-001 -8.3313674756E-001 -2.5575496617E-001 -8.3550226648E-001 +2.4632811304E-001 +2.2308689570E-002
117600000000.000 +2.4685465348E-001 +2.2486631266E-002 -2.7740248222E-001 -8.2987255996E-001 -2.6660889297E-001 -8.3169593493E-001 +2.4813306682E-001 +2.0220669979E-002
117700000000.000 +2.4564662303E-001 +2.1166412789E-002 -2.8713923348E-001 -8.2806121166E-001 -2.7541383977E-001 -8.3034563797E-001 +2.4308492533E-001 +1.6836736717E-002
117800000000.000 +2.4325906050E-001 +1.8988135128E-002 -2.9695563348E-001 -8.2357622171E-001 -2.8531260539E-001 -8.2604294693E-001 +2.4262270908E-001 +1.8176000142E-002
117900000000.000 +2.3917665276E-001 +1.7396520588E-002 -3.0778257974E-001 -8.2091551690E-001 -2.9458207472E-001 -8.2461592875E-001 +2.3691918110E-001 +1.1270405515E-002
118000000000.000 +2.3772665348E-001 +1.5048057012E-002 -3.1651672599E-001 -8.1612450056E-001 -3.0327183410E-001 -8.1990651599E-001 +2.3479833907E-001 +1.4526227079E-002
118100000000.000 +2.3489918859E-001 +1.1764504009E-002 -3.2699862539E-001 -8.1364709833E-001 -3.1474907061E-001 -8.1673488440E-001 +2.3780782328E-001 +2.4515133225E-003
118200000000.000 +2.3263549392E-001 +1.1229823150E-002 -3.3699339814E-001 -8.1065171325E-001 -3.2479172988E-001 -8.1366822836E-001 +2.2971267779E-001 +1.2166271683E-002
118300000000.000 +2.2867951567E-001 +6.5915432348E-003 -3.4733283517E-001 -8.0542737977E-001 -3.3518358604E-001 -8.1065495958E-001 +2.3546463189E-001 +1.2363216987E-003
118400000000.000 +2.2650961107E-001 +4.9747752982E-003 -3.5717374701E-001 -8.0437002149E-001 -3.4537520969E-001 -8.0666036457E-001 +2.2425789887E-001 +2.4920885172E-003
118500000000.000 +2.2356351424E-001 +3.2752020936E-003 -3.6708246476E-001 -7.9679313268E-001 -3.5560010700E-001 -8.0170628786E-001 +2.3341342532E-001 -4.0693062297E-004
118600000000.000 +2.2057354836E-001 +1.1984920499E-003 -3.7833872243E-001 -7.9497009733E-001 -3.6685959737E-001 -7.9942000280E-001 +2.2325514671E-001 -4.0071194384E-004
118700000000.000 +2.1699595648E-001 -4.5607787782E-004 -3.8772962788E-001 -7.8992699598E-001 -3.7476504391E-001 -7.9357112587E-001 +2.2390279206E-001 -1.1672395798E-003
118800000000.000 +2.1595914347E-001 -3.3229338046E-003 -3.9700608154E-001 -7.8522500229E-001 -3.8578476162E-001 -7.9053051645E-001 +2.2318332783E-001 -8.5246072954E-003
118900000000.000 +2.1057323250E-001 -3.7730823950E-003 -4.0774071527E-001 -7.8094284346E-001 -3.9675522004E-001 -7.8564758979E-001 +2.1750482148E-001 -2.3860923384E-003
119000000000.000 +2.0870027474E-001 -5.5611295382E-003 -4.1725586337E-001 -7.7402014280E-001 -4.0556754244E-001 -7.8171912466E-001 +2.1829356014E-001 -4.0998815463E-003
119100000000.000 +2.0383580318E-001 -7.1948215727E-003 -4.2746987266E-001 -7.6947936577E-001 -4.1556184261E-001 -7.7615918188E-001 +2.1039077645E-001 -5.2333179770E-003
119200000000.000 +2.0187295845E-001 -6.6582464817E-003 -4.3743881095E-001 -7.6445637191E-001 -4.2408041740E-001 -7.7129941406E-001 +2.1277885955E-001 -5.8544828316E-003
119300000000.000 +1.9786624517E-001 -8.1574613268E-003 -4.4662869192E-001 -7.5816947727E-001 -4.3289555239E-001 -7.6704106133E-001 +2.0682156341E-001 -1.9528373827E-003
119400000000.000 +1.9290100603E-001 -8.1769440108E-003 -4.5646911470E-001 -7.5415697347E-001 -4.4314656226E-001 -7.6155465321E-001 +2.0371641626E-001 -4.5588697251E-003
119500000000.000 +1.9122190307E-001 -1.0038218360E-002 -4.6087410831E-001 -7.4685198848E-001 -4.4990932580E-001 -7.5603239158E-001 +1.9763174778E-001 -9.7746279728E-003
119600000000.000 +1.8515979592E-001 -1.2454032721E-002 -4.7339967954E-001 -7.4232205176E-001 -4.6029906973E-001 -7.5124780314E-001 +1.9582178725E-001 -1.3833050477E-002
119700000000.000 +1.8379080156E-001 -1.1915130992E-002 -4.7923291358E-001 -7.3675994166E-001 -4.7033301028E-001 -7.4544921573E-001 +1.9238294110E-001 -1.4392046132E-002
119800000000.000 +1.7946545623E-001 -1.4182281884E-002 -4.9255345570E-001 -7.2989341107E-001 -4.7871055290E-001 -7.3937158079E-001 +1.9107340242E-001 -1.5085562356E-002
119900000000.000 +1.7546410706E-001 -1.3239250062E-002 -4.9907789378E-001 -7.2510584108E-001 -4.8709494480E-001 -7.3572494280E-001 +1.8787256049E-001 -1.6328035460E-002
120000000000.000 +1.7325816781E-001 -1.3178338207E-002 -5.0927652352E-001 -7.1799683068E-001 -4.9756773890E-001 -7.2816290207E-001 +1.8436277136E-001 -1.5869123276E-002
120100000000.000 +1.6857908125E-001 -1.4916481089E-002 -5.1780947252E-001 -7.1336224757E-001 -5.0551660425E-001 -7.2415664126E-001 +1.8414492999E-001 -1.9189868193E-002
120200000000.000 +1.6650833266E-001 -1.3772550549E-002 -5.2758397399E-001 -7.0622207086E-001 -5.1621092279E-001 -7.1787890185E-001 +1.7994678680E-001 -1.6778838720E-002
120300000000.000 +1.6199339878E-001 -1.4646715158E-002 -5.3618157490E-001 -6.9948190925E-001 -5.2446940652E-001 -7.1435274664E-001 +1.7748548417E-001 -1.6863564266E-002
120400000000.000 +1.5917085738E-001 -1.2803114304E-002 -5.4500014165E-001 -6.9479398284E-001 -5.3415501563E-001 -7.0516937613E-001 +1.7293563817E-001 -1.6229577234E-002
120500000000.000 +1.5665657456E-001 -1.4092484192E-002 -5.5498277774E-001 -6.8755482874E-001 -5.4308367788E-001 -6.9851169450E-001 +1.7590980259E-001 -1.3392935880E-002
120600000000.000 +1.5166300593E-001 -1.4312552820E-002 -5.6371819102E-001 -6.8207319713E-001 -5.5342065621E-001 -6.9427799409E-001 +1.6904314203E-001 -1.4427082058E-002
120700000000.000 +1.4913431122E-001 -1.2006283240E-002 -5.7390722504E-001 -6.7653312483E-001 -5.6095375187E-001 -6.8623302320E-001 +1.6311704377E-001 -1.1450717722E-002
120800000000.000 +1.4529338067E-001 -1.3964654166E-002 -5.8270160821E-001 -6.6681881538E-001 -5.6861066904E-001 -6.8131969200E-001 +1.6295834767E-001 -1.3959857631E-002
120900000000.000 +1.4121826922E-001 -1.2647142576E-002 -5.9030131807E-001 -6.6190057673E-001 -5.7909417677E-001 -6.7369171771E-001 +1.5767241592E-001 -1.2393561522E-002
121000000000.000 +1.3739556812E-001 -1.4337761338E-002 -6.0009790625E-001 -6.5206180133E-001 -5.8635774010E-001 -6.6621998663E-001 +1.5617342029E-001 -1.0891334661E-002
121100000000.000 +1.3265506174E-001 -1.1774407142E-002 -6.0779173040E-001 -6.4838062464E-001 -5.9577558647E-001 -6.5979327604E-001 +1.4717852299E-001 -1.4860978369E-002
121200000000.000 +1.3001029357E-001 -1.1303959660E-002 -6.1639327536E-001 -6.4181143033E-001 -6.0419458231E-001 -6.5033297330E-001 +1.4699905162E-001 -1.1437662892E-002
121300000000.000 +1.2648315822E-001 -1.0811176603E-002 -6.2658872801E-001 -6.3084557615E-001 -6.1164579370E-001 -6.4528399150E-001 +1.4589720132E-001 -1.2676725326E-002
121400000000.000 +1.2098747270E-001 -1.0228648279E-002 -6.3239131796E-001 -6.2503098805E-001 -6.1996829809E-001 -6.3665723645E-001 +1.3757895499E-001 -1.1375137336E-002
121500000000.000 +1.1945053179E-001 -8.3715505658E-003 -6.4145830496E-001 -6.1606826495E-001 -6.2927102618E-001 -6.3080558808E-001 +1.4090660639E-001 -1.1378747326E-002
